;$FILEVERSION=1.1
;$STARTTIME=44964.5725134375
;
;   D:\build\CanOpen\beta_tz_2023_02_07_005.trc
;
;   Start time: 07.02.2023 13:44:25.161.0
;   Generated by PCAN-View v4.2.3.559
;
;   Message Number
;   |         Time Offset (ms)
;   |         |        Type
;   |         |        |        ID (hex)
;   |         |        |        |     Data Length
;   |         |        |        |     |   Data Bytes (hex) ...
;   |         |        |        |     |   |
;---+--   ----+----  --+--  ----+---  +  -+ -- -- -- -- -- -- --
     1)       144.5  Rx         0728  1  7F 
     2)      1153.5  Rx         0728  1  7F 
     3)      2162.6  Rx         0728  1  7F 
     4)      3171.6  Rx         0728  1  7F 
     5)      4180.7  Rx         0728  1  7F 
     6)      5189.6  Rx         0728  1  7F 
     7)      6198.8  Rx         0728  1  7F 
     8)      7207.8  Rx         0728  1  7F 
     9)      8216.8  Rx         0728  1  7F 
    10)      9225.9  Rx         0728  1  7F 
    11)     10234.9  Rx         0728  1  7F 
    12)     11243.9  Rx         0728  1  7F 
    13)     12253.0  Rx         0728  1  7F 
    14)     13262.0  Rx         0728  1  7F 
    15)     14271.1  Rx         0728  1  7F 
    16)     15280.0  Rx         0728  1  7F 
    17)     16289.2  Rx         0728  1  7F 
    18)     17298.3  Rx         0728  1  7F 
    19)     18307.2  Rx         0728  1  7F 
    20)     19316.3  Rx         0728  1  7F 
    21)     20325.3  Rx         0728  1  7F 
    22)     21334.3  Rx         0728  1  7F 
    23)     22343.3  Rx         0728  1  7F 
    24)     23352.4  Rx         0728  1  7F 
    25)     24361.5  Rx         0728  1  7F 
    26)     25370.5  Rx         0728  1  7F 
    27)     26379.6  Rx         0728  1  7F 
    28)     27388.6  Rx         0728  1  7F 
    29)     28397.7  Rx         0728  1  7F 
    30)     29406.8  Rx         0728  1  7F 
    31)     30415.8  Rx         0728  1  7F 
    32)     31424.8  Rx         0728  1  7F 
    33)     32433.8  Rx         0728  1  7F 
    34)     33442.8  Rx         0728  1  7F 
    35)     34451.9  Rx         0728  1  7F 
    36)     35460.9  Rx         0728  1  7F 
    37)     36470.1  Rx         0728  1  7F 
    38)     37479.1  Rx         0728  1  7F 
    39)     38488.1  Rx         0728  1  7F 
    40)     39497.1  Rx         0728  1  7F 
    41)     40506.2  Rx         0728  1  7F 
    42)     41515.2  Rx         0728  1  7F 
    43)     42524.3  Rx         0728  1  7F 
    44)     43533.3  Rx         0728  1  7F 
    45)     44542.4  Rx         0728  1  7F 
    46)     45551.4  Rx         0728  1  7F 
    47)     46560.5  Rx         0728  1  7F 
    48)     47569.5  Rx         0728  1  7F 
    49)     48578.6  Rx         0728  1  7F 
    50)     49587.6  Rx         0728  1  7F 
    51)     50596.6  Rx         0728  1  7F 
    52)     51605.7  Rx         0728  1  7F 
    53)     52614.7  Rx         0728  1  7F 
    54)     53623.8  Rx         0728  1  7F 
    55)     54632.9  Rx         0728  1  7F 
    56)     55641.8  Rx         0728  1  7F 
    57)     56650.9  Rx         0728  1  7F 
    58)     57659.9  Rx         0728  1  7F 
    59)     58668.9  Rx         0728  1  7F 
    60)     59100.6  Rx         070F  1  00 
    61)     59678.0  Rx         0728  1  7F 
    62)     60687.0  Rx         0728  1  7F 
    63)     61696.0  Rx         0728  1  7F 
    64)     62705.1  Rx         0728  1  7F 
    65)     63714.1  Rx         0728  1  7F 
    66)     64723.2  Rx         0728  1  7F 
    67)     65732.2  Rx         0728  1  7F 
    68)     66741.4  Rx         0728  1  7F 
    69)     67750.3  Rx         0728  1  7F 
    70)     68759.4  Rx         0728  1  7F 
    71)     69768.4  Rx         0728  1  7F 
    72)     70777.4  Rx         0728  1  7F 
    73)     71786.5  Rx         0728  1  7F 
    74)     72795.5  Rx         0728  1  7F 
    75)     73804.6  Rx         0728  1  7F 
    76)     74813.7  Rx         0728  1  7F 
    77)     75822.7  Rx         0728  1  7F 
    78)     76831.8  Rx         0728  1  7F 
    79)     77840.8  Rx         0728  1  7F 
    80)     78849.8  Rx         0728  1  7F 
    81)     79858.9  Rx         0728  1  7F 
    82)     80867.9  Rx         0728  1  7F 
    83)     81876.9  Rx         0728  1  7F 
    84)     82886.0  Rx         0728  1  7F 
    85)     83895.0  Rx         0728  1  7F 
    86)     84904.0  Rx         0728  1  7F 
    87)     85913.0  Rx         0728  1  7F 
    88)     86922.2  Rx         0728  1  7F 
    89)     87931.2  Rx         0728  1  7F 
    90)     88940.2  Rx         0728  1  7F 
    91)     89949.3  Rx         0728  1  7F 
    92)     90958.3  Rx         0728  1  7F 
    93)     91967.3  Rx         0728  1  7F 
    94)     92495.9  Rx         0000  2  81 00 
    95)     92540.9  Rx         070F  1  00 
    96)     92541.9  Rx         060F  8  40 00 10 00 00 00 00 00 
    97)     92546.5  Rx         010A  8  BB 9E AE 03 99 8C 00 00 
    98)     92581.5  Rx         058F  8  43 00 10 00 46 02 00 F0 
    99)     92582.6  Rx         060F  8  40 00 10 00 00 00 00 00 
   100)     92596.7  Rx         010A  8  D3 62 AF 03 99 8C 00 00 
   101)     92629.5  Rx         058F  8  43 00 10 00 46 02 00 F0 
   102)     92630.5  Rx         060F  8  40 0C 10 00 00 00 00 00 
   103)     92647.0  Rx         010A  8  82 27 B0 03 99 8C 00 00 
   104)     92669.5  Rx         058F  8  80 0C 10 00 00 00 02 06 
   105)     92670.5  Rx         060F  8  2B 17 10 00 78 05 00 00 
   106)     92697.4  Rx         010A  8  24 EC B0 03 99 8C 00 00 
   107)     92708.9  Rx         070F  1  7F 
   108)     92721.5  Rx         058F  8  60 17 10 00 00 00 00 00 
   109)     92722.5  Rx         060F  8  23 16 10 01 68 10 01 00 
   110)     92747.6  Rx         010A  8  30 B0 B1 03 99 8C 00 00 
   111)     92769.5  Rx         058F  8  60 16 10 01 00 00 00 00 
   112)     92782.9  Rx         060F  8  40 40 30 01 00 00 00 00 
   113)     92797.8  Rx         010A  8  4D 74 B2 03 99 8C 00 00 
   114)     92829.5  Rx         058F  8  4B 40 30 01 00 00 00 00 
   115)     92830.6  Rx         060F  8  40 40 30 02 00 00 00 00 
   116)     92848.1  Rx         010A  8  FD 38 B3 03 99 8C 00 00 
   117)     92869.5  Rx         058F  8  4B 40 30 02 01 00 00 00 
   118)     92870.6  Rx         060F  8  40 13 20 00 00 00 00 00 
   119)     92898.5  Rx         010A  8  09 FE B3 03 99 8C 00 00 
   120)     92909.5  Rx         058F  8  4F 13 20 00 19 00 00 00 
   121)     92910.6  Rx         060F  8  2F 32 30 00 01 00 00 00 
   122)     92948.7  Rx         010A  8  F5 C1 B4 03 99 8C 00 00 
   123)     92949.7  Rx         058F  8  60 32 30 00 00 00 00 00 
   124)     92950.7  Rx         060F  8  40 00 10 00 00 00 00 00 
   125)     92999.0  Rx         010A  8  6A 86 B5 03 99 8C 00 00 
   126)     93001.5  Rx         058F  8  43 00 10 00 46 02 00 F0 
   127)     93002.5  Rx         060F  8  40 11 20 00 00 00 00 00 
   128)     93049.4  Rx         010A  8  57 4B B6 03 99 8C 00 00 
   129)     93050.3  Rx         058F  8  4F 11 20 00 02 00 00 00 
   130)     93051.4  Rx         060F  8  40 08 10 00 00 00 00 00 
   131)     93100.0  Rx         010A  8  0E 11 B7 03 99 8C 00 00 
   132)     93101.5  Rx         058F  8  41 08 10 00 20 00 00 00 
   133)     93102.5  Rx         060F  8  60 00 00 00 00 00 00 00 
   134)     93149.4  Rx         058F  8  00 62 65 74 61 2E 74 7A 
   135)     93150.3  Rx         010A  8  90 D5 B7 03 99 8C 00 00 
   136)     93151.4  Rx         060F  8  70 00 00 00 00 00 00 00 
   137)     93200.6  Rx         010A  8  01 9A B8 03 99 8C 00 00 
   138)     93209.5  Rx         058F  8  10 20 20 20 00 00 00 00 
   139)     93210.5  Rx         060F  8  60 00 00 00 00 00 00 00 
   140)     93249.5  Rx         058F  8  00 00 00 00 00 00 00 00 
   141)     93250.6  Rx         060F  8  70 00 00 00 00 00 00 00 
   142)     93251.5  Rx         010A  8  A2 5E B9 03 99 8C 00 00 
   143)     93289.5  Rx         058F  8  10 00 00 00 00 00 00 00 
   144)     93290.5  Rx         060F  8  60 00 00 00 00 00 00 00 
   145)     93301.7  Rx         010A  8  C2 24 BA 03 99 8C 00 00 
   146)     93329.5  Rx         058F  8  07 00 00 00 00 00 00 00 
   147)     93330.6  Rx         060F  8  40 18 10 01 00 00 00 00 
   148)     93352.4  Rx         010A  8  07 EB BA 03 99 8C 00 00 
   149)     93369.5  Rx         058F  8  43 18 10 01 0C 01 00 00 
   150)     93370.6  Rx         060F  8  40 12 20 00 00 00 00 00 
   151)     93402.7  Rx         010A  8  23 AF BB 03 99 8C 00 00 
   152)     93409.5  Rx         058F  8  4F 12 20 00 04 00 00 00 
   153)     93410.6  Rx         060F  8  40 12 20 01 00 00 00 00 
   154)     93453.1  Rx         010A  8  12 74 BC 03 99 8C 00 00 
   155)     93461.5  Rx         058F  8  4F 12 20 01 1F 00 00 00 
   156)     93462.6  Rx         060F  8  40 12 20 02 00 00 00 00 
   157)     93496.3  Rx         0100  8  05 F5 00 00 00 00 70 09 
   158)     93497.0  Rx         0701  1  05 
   159)     93503.7  Rx         010A  8  E8 39 BD 03 99 8C 00 00 
   160)     93509.5  Rx         058F  8  4F 12 20 02 92 00 00 00 
   161)     93510.5  Rx         060F  8  40 12 20 03 00 00 00 00 
   162)     93554.1  Rx         010A  8  94 FE BD 03 99 8C 00 00 
   163)     93561.5  Rx         058F  8  4F 12 20 03 00 00 00 00 
   164)     93562.6  Rx         060F  8  40 10 30 00 00 00 00 00 
   165)     93604.6  Rx         010A  8  00 C4 BE 03 99 8C 00 00 
   166)     93609.5  Rx         058F  8  41 10 30 00 32 00 00 00 
   167)     93610.6  Rx         060F  8  60 00 00 00 00 00 00 00 
   168)     93655.2  Rx         010A  8  9C 89 BF 03 99 8C 00 00 
   169)     93661.5  Rx         058F  8  00 76 6E 63 3A 2F 2F 31 
   170)     93662.5  Rx         060F  8  70 00 00 00 00 00 00 00 
   171)     93705.5  Rx         010A  8  4D 4E C0 03 99 8C 00 00 
   172)     93709.4  Rx         058F  8  10 2E 31 2E 31 2E 32 34 
   173)     93710.5  Rx         060F  8  60 00 00 00 00 00 00 00 
   174)     93756.0  Rx         010A  8  97 13 C1 03 99 8C 00 00 
   175)     93761.5  Rx         058F  8  00 32 3A 35 39 30 30 00 
   176)     93762.5  Rx         060F  8  70 00 00 00 00 00 00 00 
   177)     93806.6  Rx         010A  8  19 D9 C1 03 99 8C 00 00 
   178)     93809.6  Rx         058F  8  10 00 00 00 00 00 00 00 
   179)     93810.6  Rx         060F  8  60 00 00 00 00 00 00 00 
   180)     93857.3  Rx         010A  8  FE 9E C2 03 99 8C 00 00 
   181)     93861.5  Rx         058F  8  00 00 00 00 00 00 00 00 
   182)     93862.6  Rx         060F  8  70 00 00 00 00 00 00 00 
   183)     93907.5  Rx         010A  8  37 63 C3 03 99 8C 00 00 
   184)     93909.5  Rx         058F  8  10 00 00 00 00 00 00 00 
   185)     93910.6  Rx         060F  8  60 00 00 00 00 00 00 00 
   186)     93957.8  Rx         010A  8  D0 27 C4 03 99 8C 00 00 
   187)     93961.5  Rx         058F  8  00 00 00 00 00 00 00 00 
   188)     93962.6  Rx         060F  8  70 00 00 00 00 00 00 00 
   189)     94008.4  Rx         010A  8  25 ED C4 03 99 8C 00 00 
   190)     94009.5  Rx         058F  8  1D 00 00 00 00 00 00 00 
   191)     94010.6  Rx         060F  8  40 12 20 04 00 00 00 00 
   192)     94059.1  Rx         010A  8  6E B3 C5 03 99 8C 00 00 
   193)     94061.5  Rx         058F  8  4F 12 20 04 08 00 00 00 
   194)     94062.5  Rx         060F  8  40 12 22 03 00 00 00 00 
   195)     94109.3  Rx         010A  8  93 77 C6 03 99 8C 00 00 
   196)     94110.2  Rx         058F  8  4F 12 22 03 03 00 00 00 
   197)     94111.3  Rx         060F  8  40 12 22 04 00 00 00 00 
   198)     94120.9  Rx         070F  1  7F 
   199)     94160.0  Rx         010A  8  86 3D C7 03 99 8C 00 00 
   200)     94161.5  Rx         058F  8  4F 12 22 04 00 00 00 00 
   201)     94162.6  Rx         060F  8  40 10 20 00 00 00 00 00 
   202)     94209.5  Rx         058F  8  4F 10 20 00 04 00 00 00 
   203)     94210.6  Rx         060F  8  40 13 20 01 00 00 00 00 
   204)     94211.5  Rx         010A  8  16 03 C8 03 99 8C 00 00 
   205)     94249.5  Rx         058F  8  4F 13 20 01 03 00 00 00 
   206)     94250.6  Rx         060F  8  40 0A 10 00 00 00 00 00 
   207)     94261.1  Rx         010A  8  C1 C8 C8 03 99 8C 00 00 
   208)     94289.5  Rx         058F  8  41 0A 10 00 20 00 00 00 
   209)     94290.5  Rx         060F  8  60 00 00 00 00 00 00 00 
   210)     94310.8  Rx         010A  8  EF 8A C9 03 99 8C 00 00 
   211)     94329.5  Rx         058F  8  00 39 30 30 30 31 33 34 
   212)     94330.5  Rx         060F  8  70 00 00 00 00 00 00 00 
   213)     94361.4  Rx         010A  8  3E 50 CA 03 99 8C 00 00 
   214)     94369.5  Rx         058F  8  10 38 36 36 31 20 31 2E 
   215)     94370.5  Rx         060F  8  60 00 00 00 00 00 00 00 
   216)     94409.6  Rx         058F  8  00 30 32 00 00 00 00 00 
   217)     94410.6  Rx         060F  8  70 00 00 00 00 00 00 00 
   218)     94411.9  Rx         010A  8  9D 15 CB 03 99 8C 00 00 
   219)     94449.6  Rx         058F  8  10 00 00 00 00 00 00 00 
   220)     94450.6  Rx         060F  8  60 00 00 00 00 00 00 00 
   221)     94462.6  Rx         010A  8  88 DB CB 03 99 8C 00 00 
   222)     94489.5  Rx         058F  8  07 00 00 00 00 00 00 00 
   223)     94490.6  Rx         060F  8  40 00 21 01 00 00 00 00 
   224)     94496.8  Rx         0100  8  ED F8 00 00 00 00 2A F7 
   225)     94498.6  Rx         0701  1  05 
   226)     94513.3  Rx         010A  8  67 A1 CC 03 99 8C 00 00 
   227)     94529.5  Rx         058F  8  4B 00 21 01 50 00 00 00 
   228)     94530.6  Rx         060F  8  40 10 21 01 00 00 00 00 
   229)     94563.9  Rx         010A  8  07 67 CD 03 99 8C 00 00 
   230)     94581.5  Rx         058F  8  4B 10 21 01 FA 00 00 00 
   231)     94582.6  Rx         060F  8  40 20 21 01 00 00 00 00 
   232)     94614.3  Rx         010A  8  54 2C CE 03 99 8C 00 00 
   233)     94629.5  Rx         058F  8  4B 20 21 01 01 00 00 00 
   234)     94630.6  Rx         060F  8  40 13 20 02 00 00 00 00 
   235)     94665.0  Rx         010A  8  02 F2 CE 03 99 8C 00 00 
   236)     94669.5  Rx         058F  8  4F 13 20 02 00 00 00 00 
   237)     94670.6  Rx         060F  8  40 01 27 00 00 00 00 00 
   238)     94715.4  Rx         010A  8  18 B7 CF 03 99 8C 00 00 
   239)     94721.6  Rx         058F  8  4F 01 27 00 01 00 00 00 
   240)     94722.6  Rx         060F  8  40 01 23 01 00 00 00 00 
   241)     94766.0  Rx         010A  8  8D 7C D0 03 99 8C 00 00 
   242)     94769.5  Rx         058F  8  4B 01 23 01 96 00 00 00 
   243)     94770.6  Rx         060F  8  40 11 23 01 00 00 00 00 
   244)     94816.4  Rx         010A  8  9D 41 D1 03 99 8C 00 00 
   245)     94821.5  Rx         058F  8  4B 11 23 01 90 01 00 00 
   246)     94822.6  Rx         060F  8  40 00 27 00 00 00 00 00 
   247)     94867.3  Rx         010A  8  90 08 D2 03 99 8C 00 00 
   248)     94869.6  Rx         058F  8  4F 00 27 00 01 00 00 00 
   249)     94870.6  Rx         060F  8  40 00 23 01 00 00 00 00 
   250)     94917.7  Rx         010A  8  56 CD D2 03 99 8C 00 00 
   251)     94921.5  Rx         058F  8  4B 00 23 01 96 00 00 00 
   252)     94922.5  Rx         060F  8  40 10 23 01 00 00 00 00 
   253)     94968.2  Rx         010A  8  7C 92 D3 03 99 8C 00 00 
   254)     94969.5  Rx         058F  8  4B 10 23 01 90 01 00 00 
   255)     94970.6  Rx         060F  8  40 13 20 03 00 00 00 00 
   256)     95018.7  Rx         010A  8  F9 57 D4 03 99 8C 00 00 
   257)     95021.5  Rx         058F  8  4F 13 20 03 00 00 00 00 
   258)     95022.6  Rx         060F  8  2B 00 25 01 50 00 00 00 
   259)     95069.5  Rx         010A  8  1E 1E D5 03 99 8C 00 00 
   260)     95070.5  Rx         058F  8  60 00 25 01 00 00 00 00 
   261)     95071.5  Rx         060F  8  2B 00 26 01 3C 00 00 00 
   262)     95119.9  Rx         010A  8  71 E3 D5 03 99 8C 00 00 
   263)     95121.5  Rx         058F  8  60 00 26 01 00 00 00 00 
   264)     95122.5  Rx         060F  8  2B 10 26 01 64 00 00 00 
   265)     95169.5  Rx         058F  8  60 10 26 01 00 00 00 00 
   266)     95170.5  Rx         060F  8  2B 00 27 01 96 00 00 00 
   267)     95171.5  Rx         010A  8  05 A9 D6 03 99 8C 00 00 
   268)     95209.5  Rx         058F  8  60 00 27 01 00 00 00 00 
   269)     95210.6  Rx         060F  8  2B 00 28 01 82 00 00 00 
   270)     95221.0  Rx         010A  8  32 6E D7 03 99 8C 00 00 
   271)     95249.5  Rx         058F  8  60 00 28 01 00 00 00 00 
   272)     95250.5  Rx         060F  8  2B 10 28 01 AA 00 00 00 
   273)     95271.7  Rx         010A  8  1E 34 D8 03 99 8C 00 00 
   274)     95289.5  Rx         058F  8  60 10 28 01 00 00 00 00 
   275)     95290.6  Rx         060F  8  2B 01 27 01 96 00 00 00 
   276)     95322.0  Rx         010A  8  AF F8 D8 03 99 8C 00 00 
   277)     95329.5  Rx         058F  8  60 01 27 01 00 00 00 00 
   278)     95330.5  Rx         060F  8  2B 01 28 01 82 00 00 00 
   279)     95369.5  Rx         058F  8  60 01 28 01 00 00 00 00 
   280)     95370.6  Rx         060F  8  2B 11 28 01 AA 00 00 00 
   281)     95372.7  Rx         010A  8  C4 BE D9 03 99 8C 00 00 
   282)     95409.5  Rx         058F  8  60 11 28 01 00 00 00 00 
   283)     95410.5  Rx         060F  8  2F 11 25 01 32 00 00 00 
   284)     95423.2  Rx         010A  8  C5 83 DA 03 99 8C 00 00 
   285)     95449.5  Rx         058F  8  60 11 25 01 00 00 00 00 
   286)     95450.5  Rx         060F  8  2F 11 25 01 32 00 00 00 
   287)     95473.6  Rx         010A  8  12 49 DB 03 99 8C 00 00 
   288)     95489.5  Rx         058F  8  60 11 25 01 00 00 00 00 
   289)     95490.5  Rx         060F  8  2F 11 27 03 FF 00 00 00 
   290)     95496.9  Rx         0100  8  D5 FC 00 00 00 00 77 09 
   291)     95499.6  Rx         0701  1  05 
   292)     95508.9  Rx         070F  1  7F 
   293)     95524.3  Rx         010A  8  E8 0E DC 03 99 8C 00 00 
   294)     95529.5  Rx         058F  8  60 11 27 03 00 00 00 00 
   295)     95530.5  Rx         060F  8  2F 11 27 05 FF 00 00 00 
   296)     95574.8  Rx         010A  8  1D D4 DC 03 99 8C 00 00 
   297)     95581.5  Rx         058F  8  60 11 27 05 00 00 00 00 
   298)     95582.5  Rx         060F  8  2F 11 27 01 01 00 00 00 
   299)     95625.1  Rx         010A  8  DF 98 DD 03 99 8C 00 00 
   300)     95629.5  Rx         058F  8  60 11 27 01 00 00 00 00 
   301)     95630.5  Rx         060F  8  2F 11 27 01 01 00 00 00 
   302)     95675.7  Rx         010A  8  62 5E DE 03 99 8C 00 00 
   303)     95681.5  Rx         058F  8  60 11 27 01 00 00 00 00 
   304)     95682.6  Rx         060F  8  23 00 18 01 8F 01 00 00 
   305)     95697.1  Rx         0000  2  81 09 
   306)     95726.0  Rx         010A  8  D6 22 DF 03 99 8C 00 00 
   307)     95729.5  Rx         058F  8  60 00 18 01 00 00 00 00 
   308)     95730.5  Rx         060F  8  2F 00 18 02 FF 00 00 00 
   309)     95776.3  Rx         010A  8  40 E7 DF 03 99 8C 00 00 
   310)     95781.5  Rx         058F  8  60 00 18 02 00 00 00 00 
   311)     95782.6  Rx         060F  8  2F 00 1A 00 00 00 00 00 
   312)     95826.8  Rx         010A  8  9C AC E0 03 99 8C 00 00 
   313)     95829.5  Rx         058F  8  60 00 1A 00 00 00 00 00 
   314)     95830.5  Rx         060F  8  23 00 1A 01 10 01 00 30 
   315)     95877.5  Rx         010A  8  7A 72 E1 03 99 8C 00 00 
   316)     95881.5  Rx         058F  8  60 00 1A 01 00 00 00 00 
   317)     95882.6  Rx         060F  8  40 00 30 01 00 00 00 00 
   318)     95927.6  Rx         010A  8  7E 36 E2 03 99 8C 00 00 
   319)     95929.5  Rx         058F  8  4B 00 30 01 00 00 00 00 
   320)     95930.6  Rx         060F  8  23 00 1A 02 08 02 00 30 
   321)     95978.1  Rx         010A  8  BC FB E2 03 99 8C 00 00 
   322)     95981.5  Rx         058F  8  60 00 1A 02 00 00 00 00 
   323)     95982.5  Rx         060F  8  40 00 30 02 00 00 00 00 
   324)     96028.5  Rx         010A  8  94 C0 E3 03 99 8C 00 00 
   325)     96029.5  Rx         058F  8  4F 00 30 02 00 00 00 00 
   326)     96030.5  Rx         060F  8  23 00 1A 03 10 01 00 20 
   327)     96079.2  Rx         010A  8  8C 86 E4 03 99 8C 00 00 
   328)     96081.5  Rx         058F  8  60 00 1A 03 00 00 00 00 
   329)     96082.6  Rx         060F  8  40 00 20 01 00 00 00 00 
   330)     96097.5  Rx         0000  2  81 0A 
   331)     96129.5  Rx         058F  8  4B 00 20 01 00 00 00 00 
   332)     96130.5  Rx         010A  8  3D 4B E5 03 99 8C 00 00 
   333)     96131.5  Rx         060F  8  23 00 1A 04 08 01 10 22 
   334)     96180.1  Rx         010A  8  AB 10 E6 03 99 8C 00 00 
   335)     96189.5  Rx         058F  8  60 00 1A 04 00 00 00 00 
   336)     96190.5  Rx         060F  8  40 10 22 01 00 00 00 00 
   337)     96229.5  Rx         058F  8  4F 10 22 01 01 00 00 00 
   338)     96230.5  Rx         060F  8  23 00 1A 05 08 02 10 22 
   339)     96231.4  Rx         010A  8  47 D6 E6 03 99 8C 00 00 
   340)     96269.5  Rx         058F  8  60 00 1A 05 00 00 00 00 
   341)     96270.5  Rx         060F  8  40 10 22 02 00 00 00 00 
   342)     96281.1  Rx         010A  8  25 9B E7 03 99 8C 00 00 
   343)     96309.5  Rx         058F  8  4F 10 22 02 00 00 00 00 
   344)     96310.5  Rx         060F  8  23 00 1A 06 08 02 11 20 
   345)     96331.6  Rx         010A  8  76 60 E8 03 99 8C 00 00 
   346)     96349.5  Rx         058F  8  60 00 1A 06 00 00 00 00 
   347)     96350.6  Rx         060F  8  40 11 20 02 00 00 00 00 
   348)     96382.3  Rx         010A  8  6A 26 E9 03 99 8C 00 00 
   349)     96389.5  Rx         058F  8  4F 11 20 02 18 00 00 00 
   350)     96390.5  Rx         060F  8  23 01 18 01 8F 02 00 00 
   351)     96429.5  Rx         058F  8  60 01 18 01 00 00 00 00 
   352)     96430.5  Rx         060F  8  2F 01 18 02 FF 00 00 00 
   353)     96432.8  Rx         010A  8  B3 EB E9 03 99 8C 00 00 
   354)     96469.5  Rx         058F  8  60 01 18 02 00 00 00 00 
   355)     96470.6  Rx         060F  8  2F 01 1A 00 00 00 00 00 
   356)     96483.5  Rx         010A  8  D3 B1 EA 03 99 8C 00 00 
   357)     96497.5  Rx         0100  8  BE 00 01 00 00 00 00 00 
   358)     96498.1  Rx         0000  2  81 0B 
   359)     96502.2  Rx         0701  1  05 
   360)     96509.6  Rx         058F  8  60 01 1A 00 00 00 00 00 
   361)     96510.5  Rx         060F  8  23 01 1A 01 08 01 10 20 
   362)     96534.2  Rx         010A  8  C0 77 EB 03 99 8C 00 00 
   363)     96561.6  Rx         058F  8  60 01 1A 01 00 00 00 00 
   364)     96562.6  Rx         060F  8  40 10 20 01 00 00 00 00 
   365)     96584.6  Rx         010A  8  70 3C EC 03 99 8C 00 00 
   366)     96609.6  Rx         058F  8  4F 10 20 01 00 00 00 00 
   367)     96610.5  Rx         060F  8  23 01 1A 02 08 02 10 20 
   368)     96635.2  Rx         010A  8  51 02 ED 03 99 8C 00 00 
   369)     96649.5  Rx         058F  8  60 01 1A 02 00 00 00 00 
   370)     96650.6  Rx         060F  8  40 10 20 02 00 00 00 00 
   371)     96685.5  Rx         010A  8  FC C6 ED 03 99 8C 00 00 
   372)     96701.5  Rx         058F  8  4F 10 20 02 00 00 00 00 
   373)     96702.6  Rx         060F  8  23 01 1A 03 08 03 10 20 
   374)     96735.8  Rx         010A  8  20 8B EE 03 99 8C 00 00 
   375)     96749.5  Rx         058F  8  60 01 1A 03 00 00 00 00 
   376)     96750.6  Rx         060F  8  40 10 20 03 00 00 00 00 
   377)     96786.2  Rx         010A  8  23 50 EF 03 99 8C 00 00 
   378)     96801.5  Rx         058F  8  4F 10 20 03 00 00 00 00 
   379)     96802.5  Rx         060F  8  23 01 1A 04 08 04 10 20 
   380)     96836.9  Rx         010A  8  35 16 F0 03 99 8C 00 00 
   381)     96849.5  Rx         058F  8  60 01 1A 04 00 00 00 00 
   382)     96850.6  Rx         060F  8  40 10 20 04 00 00 00 00 
   383)     96887.4  Rx         010A  8  6B DB F0 03 99 8C 00 00 
   384)     96898.6  Rx         0000  2  81 0C 
   385)     96901.5  Rx         058F  8  4F 10 20 04 00 00 00 00 
   386)     96902.6  Rx         060F  8  2F 00 1A 00 06 00 00 00 
   387)     96908.9  Rx         070F  1  7F 
   388)     96937.7  Rx         010A  8  2A A0 F1 03 99 8C 00 00 
   389)     96949.5  Rx         058F  8  60 00 1A 00 00 00 00 00 
   390)     96950.6  Rx         060F  8  2F 01 1A 00 04 00 00 00 
   391)     96988.1  Rx         010A  8  E1 64 F2 03 99 8C 00 00 
   392)     97001.6  Rx         058F  8  60 01 1A 00 00 00 00 00 
   393)     97002.1  Rx         0000  2  01 0F 
   394)     97003.1  Rx         060F  8  40 13 20 04 00 00 00 00 
   395)     97038.8  Rx         010A  8  D3 2A F3 03 99 8C 00 00 
   396)     97041.6  Rx         018F  8  00 00 00 00 00 01 00 18 
   397)     97049.2  Rx         028F  4  00 00 00 00 
   398)     97061.5  Rx         058F  8  4F 13 20 04 00 00 00 00 
   399)     97062.6  Rx         060F  8  40 13 20 05 00 00 00 00 
   400)     97089.2  Rx         010A  8  F3 EF F3 03 99 8C 00 00 
   401)     97109.5  Rx         058F  8  4F 13 20 05 00 00 00 00 
   402)     97110.6  Rx         060F  8  40 13 20 06 00 00 00 00 
   403)     97139.9  Rx         010A  8  C9 B5 F4 03 99 8C 00 00 
   404)     97149.5  Rx         058F  8  4F 13 20 06 00 00 00 00 
   405)     97150.5  Rx         060F  8  40 13 20 07 00 00 00 00 
   406)     97189.5  Rx         058F  8  4F 13 20 07 00 00 00 00 
   407)     97190.5  Rx         010A  8  06 7B F5 03 99 8C 00 00 
   408)     97191.4  Rx         060F  8  40 13 20 08 00 00 00 00 
   409)     97240.9  Rx         010A  8  73 40 F6 03 99 8C 00 00 
   410)     97249.5  Rx         058F  8  4F 13 20 08 00 00 00 00 
   411)     97250.5  Rx         060F  8  40 13 20 09 00 00 00 00 
   412)     97289.5  Rx         058F  8  4F 13 20 09 00 00 00 00 
   413)     97290.6  Rx         060F  8  40 13 20 0A 00 00 00 00 
   414)     97291.5  Rx         010A  8  00 04 F7 03 99 8C 00 00 
   415)     97298.9  Rx         0000  2  81 0D 
   416)     97329.5  Rx         058F  8  4F 13 20 0A 00 00 00 00 
   417)     97330.5  Rx         060F  8  40 13 20 0B 00 00 00 00 
   418)     97341.2  Rx         010A  8  09 C8 F7 03 99 8C 00 00 
   419)     97381.5  Rx         058F  8  4F 13 20 0B 00 00 00 00 
   420)     97382.6  Rx         060F  8  40 13 20 0C 00 00 00 00 
   421)     97391.5  Rx         010A  8  E0 8C F8 03 99 8C 00 00 
   422)     97429.5  Rx         058F  8  4F 13 20 0C 00 00 00 00 
   423)     97430.7  Rx         060F  8  40 13 20 0D 00 00 00 00 
   424)     97442.3  Rx         010A  8  27 53 F9 03 99 8C 00 00 
   425)     97469.5  Rx         058F  8  4F 13 20 0D 00 00 00 00 
   426)     97470.5  Rx         060F  8  40 13 20 0E 00 00 00 00 
   427)     97492.7  Rx         010A  8  06 18 FA 03 99 8C 00 00 
   428)     97497.9  Rx         0100  8  A6 04 01 00 00 00 00 00 
   429)     97504.6  Rx         0701  1  05 
   430)     97509.5  Rx         058F  8  4F 13 20 0E 00 00 00 00 
   431)     97510.6  Rx         060F  8  40 13 20 0F 00 00 00 00 
   432)     97543.4  Rx         010A  8  27 DE FA 03 99 8C 00 00 
   433)     97561.5  Rx         058F  8  4F 13 20 0F 00 00 00 00 
   434)     97562.6  Rx         060F  8  40 13 20 10 00 00 00 00 
   435)     97594.0  Rx         010A  8  89 A3 FB 03 99 8C 00 00 
   436)     97609.5  Rx         058F  8  4F 13 20 10 00 00 00 00 
   437)     97610.6  Rx         060F  8  40 13 20 11 00 00 00 00 
   438)     97644.5  Rx         010A  8  0E 69 FC 03 99 8C 00 00 
   439)     97649.5  Rx         058F  8  4F 13 20 11 00 00 00 00 
   440)     97650.6  Rx         060F  8  40 13 20 12 00 00 00 00 
   441)     97694.8  Rx         010A  8  51 2D FD 03 99 8C 00 00 
   442)     97698.5  Rx         0000  2  81 0E 
   443)     97701.6  Rx         058F  8  4F 13 20 12 00 00 00 00 
   444)     97702.6  Rx         060F  8  40 13 20 13 00 00 00 00 
   445)     97745.7  Rx         010A  8  1D F4 FD 03 99 8C 00 00 
   446)     97761.5  Rx         058F  8  4F 13 20 13 00 00 00 00 
   447)     97762.6  Rx         060F  8  40 13 20 14 00 00 00 00 
   448)     97796.0  Rx         010A  8  C5 B8 FE 03 99 8C 00 00 
   449)     97809.5  Rx         058F  8  4F 13 20 14 00 00 00 00 
   450)     97810.7  Rx         060F  8  40 13 20 15 00 00 00 00 
   451)     97845.9  Rx         010A  8  E8 7B FF 03 99 8C 00 00 
   452)     97861.5  Rx         058F  8  4F 13 20 15 00 00 00 00 
   453)     97862.6  Rx         060F  8  40 13 20 16 00 00 00 00 
   454)     97896.0  Rx         010A  8  5C 3F 00 04 99 8C 00 00 
   455)     97909.5  Rx         058F  8  4F 13 20 16 00 00 00 00 
   456)     97910.6  Rx         060F  8  40 13 20 17 00 00 00 00 
   457)     97946.6  Rx         010A  8  FC 04 01 04 99 8C 00 00 
   458)     97961.5  Rx         058F  8  4F 13 20 17 00 00 00 00 
   459)     97962.6  Rx         060F  8  40 13 20 18 00 00 00 00 
   460)     97997.1  Rx         010A  8  63 CA 01 04 99 8C 00 00 
   461)     98009.5  Rx         058F  8  4F 13 20 18 00 00 00 00 
   462)     98010.6  Rx         060F  8  40 13 20 19 00 00 00 00 
   463)     98041.6  Rx         018F  8  00 00 00 00 00 01 00 18 
   464)     98047.6  Rx         010A  8  9E 8F 02 04 99 8C 00 00 
   465)     98049.1  Rx         028F  4  00 00 00 00 
   466)     98061.5  Rx         058F  8  4F 13 20 19 00 00 00 00 
   467)     98097.9  Rx         010A  8  42 54 03 04 99 8C 00 00 
   468)     98148.7  Rx         010A  8  9D 1A 04 04 99 8C 00 00 
   469)     98199.1  Rx         010A  8  45 DF 04 04 99 8C 00 00 
   470)     98249.6  Rx         010A  8  CE A4 05 04 99 8C 00 00 
   471)     98299.8  Rx         010A  8  E7 68 06 04 99 8C 00 00 
   472)     98308.9  Rx         070F  1  05 
   473)     98350.7  Rx         010A  8  BF 2F 07 04 99 8C 00 00 
   474)     98401.2  Rx         010A  8  FF F4 07 04 99 8C 00 00 
   475)     98451.8  Rx         010A  8  D6 BA 08 04 99 8C 00 00 
   476)     98498.1  Rx         0100  8  8F 08 01 00 00 00 77 09 
   477)     98498.8  Rx         07EA  3  06 00 7F 
   478)     98502.3  Rx         010A  8  C4 7F 09 04 99 8C 00 00 
   479)     98505.9  Rx         0701  1  05 
   480)     98552.9  Rx         010A  8  AC 45 0A 04 99 8C 00 00 
   481)     98603.3  Rx         010A  8  89 0A 0B 04 99 8C 00 00 
   482)     98654.1  Rx         010A  8  83 D0 0B 04 99 8C 00 00 
   483)     98696.4  Rx         060F  8  40 00 40 00 00 00 00 00 
   484)     98704.1  Rx         010A  8  41 94 0C 04 99 8C 00 00 
   485)     98741.6  Rx         058F  8  41 00 40 00 24 00 00 00 
   486)     98742.6  Rx         060F  8  60 00 00 00 00 00 00 00 
   487)     98754.7  Rx         010A  8  C5 59 0D 04 99 8C 00 00 
   488)     98789.5  Rx         058F  8  00 46 20 32 30 34 22 4D 
   489)     98790.5  Rx         060F  8  70 00 00 00 00 00 00 00 
   490)     98805.2  Rx         010A  8  DC 1E 0E 04 99 8C 00 00 
   491)     98829.5  Rx         058F  8  10 6F 74 6F 72 73 63 68 
   492)     98830.6  Rx         060F  8  60 00 00 00 00 00 00 00 
   493)     98855.9  Rx         010A  8  49 E5 0E 04 99 8C 00 00 
   494)     98869.5  Rx         058F  8  00 75 74 7A 20 50 75 6D 
   495)     98870.6  Rx         060F  8  70 00 00 00 00 00 00 00 
   496)     98905.9  Rx         010A  8  31 A8 0F 04 99 8C 00 00 
   497)     98921.5  Rx         058F  8  10 70 65 20 54 2D 4B 72 
   498)     98922.5  Rx         060F  8  60 00 00 00 00 00 00 00 
   499)     98956.7  Rx         010A  8  BF 6E 10 04 99 8C 00 00 
   500)     98969.5  Rx         058F  8  00 65 69 73 20 31 00 00 
   501)     98970.6  Rx         060F  8  70 00 00 00 00 00 00 00 
   502)     99007.0  Rx         010A  8  65 33 11 04 99 8C 00 00 
   503)     99021.6  Rx         058F  8  1D 00 00 00 00 00 00 00 
   504)     99041.6  Rx         018F  8  00 00 00 00 00 01 00 18 
   505)     99049.2  Rx         028F  4  00 00 00 00 
   506)     99056.9  Rx         010A  8  43 F6 11 04 99 8C 00 00 
   507)     99107.0  Rx         010A  8  0E BA 12 04 99 8C 00 00 
   508)     99157.7  Rx         010A  8  14 80 13 04 99 8C 00 00 
   509)     99208.2  Rx         010A  8  1D 45 14 04 99 8C 00 00 
   510)     99258.7  Rx         010A  8  CF 0A 15 04 99 8C 00 00 
   511)     99309.0  Rx         010A  8  40 CF 15 04 99 8C 00 00 
   512)     99359.8  Rx         010A  8  62 95 16 04 99 8C 00 00 
   513)     99410.2  Rx         010A  8  2F 5A 17 04 99 8C 00 00 
   514)     99460.9  Rx         010A  8  79 20 18 04 99 8C 00 00 
   515)     99498.2  Rx         0100  8  77 0C 01 00 00 00 77 09 
   516)     99509.0  Rx         0701  1  05 
   517)     99510.8  Rx         010A  8  2B E3 18 04 99 8C 00 00 
   518)     99561.4  Rx         010A  8  2B A9 19 04 99 8C 00 00 
   519)     99577.7  Rx         075A  1  00 
   520)     99578.7  Rx         065A  8  40 00 10 00 00 00 00 00 
   521)     99579.7  Rx         060F  8  40 01 40 00 00 00 00 00 
   522)     99588.2  Rx         05DA  8  43 00 10 00 4B 02 11 20 
   523)     99589.3  Rx         065A  8  40 00 10 00 00 00 00 00 
   524)     99598.1  Rx         05DA  8  43 00 10 00 4B 02 11 20 
   525)     99599.1  Rx         065A  8  40 0C 10 00 00 00 00 00 
   526)     99608.2  Rx         05DA  8  80 0C 10 00 00 00 02 06 
   527)     99609.2  Rx         065A  8  2B 17 10 00 78 05 00 00 
   528)     99612.1  Rx         010A  8  E6 6E 1A 04 99 8C 00 00 
   529)     99618.1  Rx         05DA  8  60 17 10 00 00 00 00 00 
   530)     99619.1  Rx         065A  8  23 16 10 01 68 10 01 00 
   531)     99628.1  Rx         05DA  8  60 16 10 01 00 00 00 00 
   532)     99629.2  Rx         065A  8  40 40 30 01 00 00 00 00 
   533)     99630.2  Rx         058F  8  41 01 40 00 24 00 00 00 
   534)     99631.3  Rx         060F  8  60 00 00 00 00 00 00 00 
   535)     99638.1  Rx         05DA  8  80 40 30 01 00 00 02 06 
   536)     99639.1  Rx         065A  8  40 40 30 02 00 00 00 00 
   537)     99648.2  Rx         05DA  8  80 40 30 02 00 00 02 06 
   538)     99649.3  Rx         065A  8  40 13 20 00 00 00 00 00 
   539)     99658.1  Rx         05DA  8  4F 13 20 00 08 00 00 00 
   540)     99659.2  Rx         065A  8  2F 32 30 00 01 00 00 00 
   541)     99662.6  Rx         010A  8  62 34 1B 04 99 8C 00 00 
   542)     99668.2  Rx         05DA  8  60 32 30 00 00 00 00 00 
   543)     99669.2  Rx         065A  8  40 00 10 00 00 00 00 00 
   544)     99678.1  Rx         05DA  8  43 00 10 00 4B 02 11 20 
   545)     99679.1  Rx         065A  8  40 11 20 00 00 00 00 00 
   546)     99688.2  Rx         05DA  8  4F 11 20 00 0A 00 00 00 
   547)     99689.2  Rx         065A  8  40 08 10 00 00 00 00 00 
   548)     99698.1  Rx         05DA  8  41 08 10 00 11 00 00 00 
   549)     99699.1  Rx         065A  8  60 00 00 00 00 00 00 00 
   550)     99708.1  Rx         05DA  8  00 44 69 67 69 74 61 6C 
   551)     99709.1  Rx         065A  8  70 00 00 00 00 00 00 00 
   552)     99709.6  Rx         070F  1  05 
   553)     99712.8  Rx         010A  8  35 F8 1B 04 99 8C 00 00 
   554)     99718.1  Rx         05DA  8  10 20 49 6E 6B 53 75 70 
   555)     99719.1  Rx         065A  8  60 00 00 00 00 00 00 00 
   556)     99728.1  Rx         05DA  8  09 70 6C 79 6B 53 75 70 
   557)     99729.2  Rx         065A  8  40 18 10 01 00 00 00 00 
   558)     99730.1  Rx         058F  8  00 46 20 32 30 35 22 4D 
   559)     99731.1  Rx         060F  8  70 00 00 00 00 00 00 00 
   560)     99738.1  Rx         05DA  8  80 18 10 01 00 00 02 06 
   561)     99739.1  Rx         065A  8  40 12 20 00 00 00 00 00 
   562)     99748.2  Rx         05DA  8  4F 12 20 00 04 00 00 00 
   563)     99749.2  Rx         065A  8  40 12 20 01 00 00 00 00 
   564)     99758.1  Rx         05DA  8  4F 12 20 01 0F 00 00 00 
   565)     99759.1  Rx         065A  8  40 12 20 02 00 00 00 00 
   566)     99763.3  Rx         010A  8  BC BD 1C 04 99 8C 00 00 
   567)     99768.2  Rx         05DA  8  4F 12 20 02 12 00 00 00 
   568)     99769.2  Rx         065A  8  40 12 20 03 00 00 00 00 
   569)     99778.1  Rx         05DA  8  4F 12 20 03 39 00 00 00 
   570)     99779.1  Rx         065A  8  40 10 30 00 00 00 00 00 
   571)     99788.2  Rx         05DA  8  80 10 30 00 00 00 02 06 
   572)     99789.2  Rx         065A  8  40 13 20 01 00 00 00 00 
   573)     99798.1  Rx         05DA  8  4F 13 20 01 00 00 00 00 
   574)     99799.1  Rx         065A  8  40 0A 10 00 00 00 00 00 
   575)     99808.1  Rx         05DA  8  41 0A 10 00 16 00 00 00 
   576)     99809.2  Rx         065A  8  60 00 00 00 00 00 00 00 
   577)     99813.6  Rx         010A  8  59 82 1D 04 99 8C 00 00 
   578)     99818.0  Rx         05DA  8  00 49 6E 6B 53 75 70 70 
   579)     99819.1  Rx         065A  8  70 00 00 00 00 00 00 00 
   580)     99828.1  Rx         05DA  8  10 6C 79 20 3A 20 31 39 
   581)     99829.2  Rx         065A  8  60 00 00 00 00 00 00 00 
   582)     99838.1  Rx         05DA  8  00 42 2E 30 34 2E 30 30 
   583)     99839.1  Rx         065A  8  70 00 00 00 00 00 00 00 
   584)     99848.2  Rx         05DA  8  1D 30 2E 30 34 2E 30 30 
   585)     99849.2  Rx         065A  8  2F 13 25 01 01 00 00 00 
   586)     99858.1  Rx         05DA  8  60 13 25 01 00 00 00 00 
   587)     99859.1  Rx         065A  8  40 59 25 01 00 00 00 00 
   588)     99864.4  Rx         010A  8  94 48 1E 04 99 8C 00 00 
   589)     99868.1  Rx         05DA  8  4F 59 25 01 00 00 00 00 
   590)     99869.1  Rx         065A  8  40 59 25 02 00 00 00 00 
   591)     99878.1  Rx         05DA  8  4F 59 25 02 00 00 00 00 
   592)     99879.1  Rx         065A  8  40 20 26 04 00 00 00 00 
   593)     99888.1  Rx         05DA  8  43 20 26 04 2C 0D 07 02 
   594)     99889.2  Rx         065A  8  40 20 26 03 00 00 00 00 
   595)     99898.1  Rx         05DA  8  43 20 26 03 00 00 00 00 
   596)     99899.1  Rx         065A  8  40 20 26 05 00 00 00 00 
   597)     99908.1  Rx         05DA  8  43 20 26 05 00 00 00 00 
   598)     99909.2  Rx         065A  8  40 13 20 02 00 00 00 00 
   599)     99914.6  Rx         010A  8  86 0C 1F 04 99 8C 00 00 
   600)     99918.1  Rx         05DA  8  4F 13 20 02 00 00 00 00 
   601)     99919.1  Rx         065A  8  23 21 26 01 02 00 00 00 
   602)     99921.5  Rx         058F  8  10 6F 74 6F 72 73 63 68 
   603)     99922.5  Rx         060F  8  60 00 00 00 00 00 00 00 
   604)     99928.1  Rx         05DA  8  60 21 26 01 00 00 00 00 
   605)     99929.1  Rx         065A  8  23 21 26 02 FE 00 01 00 
   606)     99938.1  Rx         05DA  8  60 21 26 02 00 00 00 00 
   607)     99939.1  Rx         065A  8  23 21 26 04 01 00 00 00 
   608)     99948.1  Rx         05DA  8  60 21 26 04 00 00 00 00 
   609)     99949.1  Rx         065A  8  23 21 26 05 61 00 00 00 
   610)     99958.1  Rx         05DA  8  60 21 26 05 00 00 00 00 
   611)     99959.1  Rx         065A  8  23 21 26 06 41 00 00 00 
   612)     99964.9  Rx         010A  8  41 D1 1F 04 99 8C 00 00 
   613)     99968.1  Rx         05DA  8  60 21 26 06 00 00 00 00 
   614)     99969.1  Rx         065A  8  40 00 1A 01 00 00 00 00 
   615)     99978.1  Rx         05DA  8  43 00 1A 01 08 01 11 20 
   616)     99979.0  Rx         065A  8  40 11 20 01 00 00 00 00 
   617)     99988.1  Rx         05DA  8  4F 11 20 01 00 00 00 00 
   618)     99989.1  Rx         065A  8  40 00 1A 02 00 00 00 00 
   619)     99998.1  Rx         05DA  8  43 00 1A 02 08 02 11 20 
   620)     99999.1  Rx         065A  8  40 11 20 02 00 00 00 00 
   621)    100008.1  Rx         05DA  8  4F 11 20 02 38 00 00 00 
   622)    100009.1  Rx         065A  8  40 00 1A 03 00 00 00 00 
   623)    100015.5  Rx         010A  8  C9 96 20 04 99 8C 00 00 
   624)    100018.1  Rx         05DA  8  43 00 1A 03 08 00 20 20 
   625)    100019.1  Rx         065A  8  40 20 20 00 00 00 00 00 
   626)    100028.1  Rx         05DA  8  4F 20 20 00 07 00 00 00 
   627)    100029.1  Rx         065A  8  40 00 1A 04 00 00 00 00 
   628)    100038.1  Rx         05DA  8  43 00 1A 04 08 01 10 20 
   629)    100039.1  Rx         065A  8  40 10 20 01 00 00 00 00 
   630)    100048.1  Rx         05DA  8  4F 10 20 01 00 00 00 00 
   631)    100049.1  Rx         065A  8  40 00 1A 05 00 00 00 00 
   632)    100050.1  Rx         058F  8  00 75 74 7A 20 50 75 6D 
   633)    100051.1  Rx         060F  8  70 00 00 00 00 00 00 00 
   634)    100058.1  Rx         05DA  8  43 00 1A 05 08 02 10 20 
   635)    100059.1  Rx         065A  8  40 10 20 02 00 00 00 00 
   636)    100066.2  Rx         010A  8  EB 5C 21 04 99 8C 00 00 
   637)    100068.1  Rx         05DA  8  4F 10 20 02 00 00 00 00 
   638)    100069.2  Rx         065A  8  40 00 1A 06 00 00 00 00 
   639)    100078.1  Rx         05DA  8  43 00 1A 06 08 03 10 20 
   640)    100079.1  Rx         065A  8  40 10 20 03 00 00 00 00 
   641)    100088.2  Rx         05DA  8  4F 10 20 03 00 00 00 00 
   642)    100089.2  Rx         065A  8  40 01 1A 01 00 00 00 00 
   643)    100098.1  Rx         05DA  8  43 01 1A 01 08 01 13 20 
   644)    100099.1  Rx         065A  8  40 13 20 01 00 00 00 00 
   645)    100108.1  Rx         05DA  8  4F 13 20 01 00 00 00 00 
   646)    100109.2  Rx         065A  8  40 01 1A 02 00 00 00 00 
   647)    100116.5  Rx         010A  8  37 21 22 04 99 8C 00 00 
   648)    100118.0  Rx         05DA  8  43 01 1A 02 08 02 13 20 
   649)    100119.1  Rx         065A  8  40 13 20 02 00 00 00 00 
   650)    100128.1  Rx         05DA  8  4F 13 20 02 00 00 00 00 
   651)    100129.1  Rx         065A  8  40 01 1A 03 00 00 00 00 
   652)    100138.1  Rx         05DA  8  43 01 1A 03 08 03 13 20 
   653)    100139.1  Rx         065A  8  40 13 20 03 00 00 00 00 
   654)    100148.2  Rx         05DA  8  4F 13 20 03 00 00 00 00 
   655)    100149.2  Rx         065A  8  40 01 1A 04 00 00 00 00 
   656)    100158.1  Rx         05DA  8  43 01 1A 04 08 04 13 20 
   657)    100159.0  Rx         065A  8  40 13 20 04 00 00 00 00 
   658)    100167.1  Rx         010A  8  E5 E6 22 04 99 8C 00 00 
   659)    100168.2  Rx         05DA  8  4F 13 20 04 00 00 00 00 
   660)    100169.2  Rx         065A  8  40 01 1A 05 00 00 00 00 
   661)    100178.0  Rx         05DA  8  43 01 1A 05 08 05 13 20 
   662)    100179.1  Rx         065A  8  40 13 20 05 00 00 00 00 
   663)    100188.1  Rx         05DA  8  4F 13 20 05 00 00 00 00 
   664)    100189.1  Rx         065A  8  40 01 1A 06 00 00 00 00 
   665)    100198.0  Rx         05DA  8  43 01 1A 06 08 06 13 20 
   666)    100199.1  Rx         065A  8  40 13 20 06 00 00 00 00 
   667)    100208.1  Rx         05DA  8  4F 13 20 06 00 00 00 00 
   668)    100209.1  Rx         065A  8  40 01 1A 07 00 00 00 00 
   669)    100217.4  Rx         010A  8  AC AB 23 04 99 8C 00 00 
   670)    100218.4  Rx         05DA  8  43 01 1A 07 08 07 13 20 
   671)    100219.3  Rx         065A  8  40 13 20 07 00 00 00 00 
   672)    100228.1  Rx         05DA  8  4F 13 20 07 00 00 00 00 
   673)    100229.1  Rx         065A  8  40 01 1A 08 00 00 00 00 
   674)    100238.1  Rx         05DA  8  43 01 1A 08 08 08 13 20 
   675)    100239.1  Rx         065A  8  40 13 20 08 00 00 00 00 
   676)    100248.1  Rx         05DA  8  4F 13 20 08 00 00 00 00 
   677)    100249.1  Rx         065A  8  40 10 20 05 00 00 00 00 
   678)    100258.1  Rx         05DA  8  4F 10 20 05 00 00 00 00 
   679)    100259.1  Rx         065A  8  40 11 20 03 00 00 00 00 
   680)    100268.1  Rx         010A  8  7A 71 24 04 99 8C 00 00 
   681)    100269.0  Rx         05DA  8  4F 11 20 03 00 00 00 00 
   682)    100270.1  Rx         065A  8  40 10 20 06 00 00 00 00 
   683)    100278.1  Rx         05DA  8  4F 10 20 06 00 00 00 00 
   684)    100279.1  Rx         065A  8  40 10 20 07 00 00 00 00 
   685)    100288.1  Rx         05DA  8  4F 10 20 07 00 00 00 00 
   686)    100289.1  Rx         065A  8  40 11 20 04 00 00 00 00 
   687)    100298.0  Rx         05DA  8  4F 11 20 04 01 00 00 00 
   688)    100299.1  Rx         065A  8  40 10 20 08 00 00 00 00 
   689)    100308.1  Rx         05DA  8  4F 10 20 08 00 00 00 00 
   690)    100309.2  Rx         065A  8  40 10 20 09 00 00 00 00 
   691)    100310.2  Rx         060F  8  40 01 40 00 00 00 00 00 
   692)    100318.1  Rx         05DA  8  4F 10 20 09 00 00 00 00 
   693)    100319.0  Rx         010A  8  C8 36 25 04 99 8C 00 00 
   694)    100320.0  Rx         065A  8  40 11 20 05 00 00 00 00 
   695)    100328.1  Rx         05DA  8  4F 11 20 05 00 00 00 00 
   696)    100329.2  Rx         065A  8  40 10 20 0A 00 00 00 00 
   697)    100338.1  Rx         05DA  8  4F 10 20 0A 00 00 00 00 
   698)    100339.1  Rx         065A  8  40 10 20 0B 00 00 00 00 
   699)    100348.1  Rx         05DA  8  4F 10 20 0B 00 00 00 00 
   700)    100349.2  Rx         065A  8  40 11 20 06 00 00 00 00 
   701)    100358.1  Rx         05DA  8  4F 11 20 06 00 00 00 00 
   702)    100359.1  Rx         065A  8  40 10 20 0C 00 00 00 00 
   703)    100368.1  Rx         05DA  8  4F 10 20 0C 00 00 00 00 
   704)    100369.0  Rx         010A  8  D4 FB 25 04 99 8C 00 00 
   705)    100370.0  Rx         065A  8  40 10 20 0D 00 00 00 00 
   706)    100378.1  Rx         05DA  8  4F 10 20 0D 00 00 00 00 
   707)    100379.1  Rx         065A  8  40 11 20 07 00 00 00 00 
   708)    100388.1  Rx         05DA  8  4F 11 20 07 01 00 00 00 
   709)    100389.2  Rx         065A  8  40 10 20 0E 00 00 00 00 
   710)    100398.1  Rx         05DA  8  4F 10 20 0E 00 00 00 00 
   711)    100399.2  Rx         065A  8  40 10 20 0F 00 00 00 00 
   712)    100408.1  Rx         05DA  8  4F 10 20 0F 00 00 00 00 
   713)    100409.2  Rx         065A  8  40 11 20 08 00 00 00 00 
   714)    100418.1  Rx         05DA  8  4F 11 20 08 01 00 00 00 
   715)    100419.1  Rx         065A  8  40 10 20 10 00 00 00 00 
   716)    100420.0  Rx         010A  8  CE C0 26 04 99 8C 00 00 
   717)    100428.2  Rx         05DA  8  4F 10 20 10 00 00 00 00 
   718)    100429.2  Rx         065A  8  40 10 20 11 00 00 00 00 
   719)    100438.1  Rx         05DA  8  4F 10 20 11 00 00 00 00 
   720)    100439.1  Rx         065A  8  40 11 20 09 00 00 00 00 
   721)    100448.1  Rx         05DA  8  4F 11 20 09 01 00 00 00 
   722)    100449.1  Rx         065A  8  40 10 20 12 00 00 00 00 
   723)    100458.1  Rx         05DA  8  4F 10 20 12 00 00 00 00 
   724)    100459.1  Rx         065A  8  40 10 20 13 00 00 00 00 
   725)    100468.1  Rx         05DA  8  4F 10 20 13 00 00 00 00 
   726)    100469.2  Rx         065A  8  40 11 20 0A 00 00 00 00 
   727)    100470.2  Rx         010A  8  48 87 27 04 99 8C 00 00 
   728)    100478.0  Rx         05DA  8  4F 11 20 0A 01 00 00 00 
   729)    100479.1  Rx         065A  8  40 10 20 14 00 00 00 00 
   730)    100488.1  Rx         05DA  8  4F 10 20 14 00 00 00 00 
   731)    100488.7  Rx         0000  2  01 5A 
   732)    100489.7  Rx         065A  8  2F 11 25 02 00 00 00 00 
   733)    100498.1  Rx         01DA  8  01 58 07 00 00 00 00 00 
   734)    100499.0  Rx         0100  8  5F 10 01 00 00 00 2C F7 
   735)    100500.1  Rx         02DA  8  00 00 00 00 00 00 00 00 
   736)    100501.1  Rx         03DA  8  00 00 00 00 00 00 00 00 
   737)    100501.9  Rx         04DA  6  00 00 00 00 00 00 
   738)    100502.9  Rx         05DA  8  60 11 25 02 00 00 00 00 
   739)    100503.9  Rx         065A  8  2F 11 25 02 00 00 00 00 
   740)    100508.1  Rx         05DA  8  60 11 25 02 00 00 00 00 
   741)    100509.1  Rx         065A  8  2F 11 25 01 00 00 00 00 
   742)    100509.6  Rx         0701  1  05 
   743)    100518.1  Rx         05DA  8  60 11 25 01 00 00 00 00 
   744)    100519.0  Rx         065A  8  40 11 20 03 00 00 00 00 
   745)    100520.8  Rx         010A  8  9C 4C 28 04 99 8C 00 00 
   746)    100528.1  Rx         05DA  8  4F 11 20 03 01 00 00 00 
   747)    100529.1  Rx         065A  8  40 11 20 04 00 00 00 00 
   748)    100538.0  Rx         05DA  8  4F 11 20 04 01 00 00 00 
   749)    100539.1  Rx         065A  8  40 11 20 05 00 00 00 00 
   750)    100548.1  Rx         05DA  8  4F 11 20 05 01 00 00 00 
   751)    100549.1  Rx         065A  8  40 11 20 06 00 00 00 00 
   752)    100558.0  Rx         05DA  8  4F 11 20 06 01 00 00 00 
   753)    100559.1  Rx         065A  8  40 11 20 07 00 00 00 00 
   754)    100568.1  Rx         05DA  8  4F 11 20 07 01 00 00 00 
   755)    100569.2  Rx         065A  8  40 11 20 08 00 00 00 00 
   756)    100571.3  Rx         010A  8  06 12 29 04 99 8C 00 00 
   757)    100577.6  Rx         075A  1  7F 
   758)    100578.6  Rx         05DA  8  4F 11 20 08 01 00 00 00 
   759)    100579.5  Rx         065A  8  40 11 20 09 00 00 00 00 
   760)    100588.1  Rx         05DA  8  4F 11 20 09 01 00 00 00 
   761)    100589.1  Rx         065A  8  40 11 20 0A 00 00 00 00 
   762)    100598.1  Rx         05DA  8  4F 11 20 0A 01 00 00 00 
   763)    100599.0  Rx         065A  8  2F 11 25 01 02 00 00 00 
   764)    100608.1  Rx         05DA  8  60 11 25 01 00 00 00 00 
   765)    100609.1  Rx         065A  8  40 11 20 03 00 00 00 00 
   766)    100618.1  Rx         05DA  8  4F 11 20 03 01 00 00 00 
   767)    100619.1  Rx         065A  8  40 11 20 04 00 00 00 00 
   768)    100621.6  Rx         010A  8  A6 D6 29 04 99 8C 00 00 
   769)    100628.1  Rx         05DA  8  4F 11 20 04 01 00 00 00 
   770)    100629.1  Rx         065A  8  40 11 20 05 00 00 00 00 
   771)    100638.0  Rx         05DA  8  4F 11 20 05 01 00 00 00 
   772)    100639.1  Rx         065A  8  40 11 20 06 00 00 00 00 
   773)    100648.2  Rx         05DA  8  4F 11 20 06 01 00 00 00 
   774)    100649.2  Rx         065A  8  40 11 20 07 00 00 00 00 
   775)    100658.1  Rx         05DA  8  4F 11 20 07 01 00 00 00 
   776)    100659.1  Rx         065A  8  40 11 20 08 00 00 00 00 
   777)    100668.1  Rx         05DA  8  4F 11 20 08 01 00 00 00 
   778)    100669.1  Rx         065A  8  40 11 20 09 00 00 00 00 
   779)    100672.4  Rx         010A  8  EB 9C 2A 04 99 8C 00 00 
   780)    100678.1  Rx         05DA  8  4F 11 20 09 01 00 00 00 
   781)    100679.1  Rx         065A  8  40 11 20 0A 00 00 00 00 
   782)    100688.1  Rx         05DA  8  4F 11 20 0A 01 00 00 00 
   783)    100709.6  Rx         060F  8  80 01 40 00 00 00 04 05 
   784)    100722.9  Rx         010A  8  EA 61 2B 04 99 8C 00 00 
   785)    100773.2  Rx         010A  8  BD 26 2C 04 99 8C 00 00 
   786)    100823.7  Rx         010A  8  F2 EB 2C 04 99 8C 00 00 
   787)    100874.5  Rx         010A  8  7D B2 2D 04 99 8C 00 00 
   788)    100924.7  Rx         010A  8  93 76 2E 04 99 8C 00 00 
   789)    100975.1  Rx         010A  8  8C 3B 2F 04 99 8C 00 00 
   790)    101025.5  Rx         010A  8  33 00 30 04 99 8C 00 00 
   791)    101076.2  Rx         010A  8  31 C6 30 04 99 8C 00 00 
   792)    101108.9  Rx         070F  1  7F 
   793)    101109.5  Rx         0000  2  81 0F 
   794)    101126.5  Rx         010A  8  F8 8A 31 04 99 8C 00 00 
   795)    101153.0  Rx         070F  1  00 
   796)    101154.0  Rx         060F  8  40 00 10 00 00 00 00 00 
   797)    101176.9  Rx         010A  8  95 4F 32 04 99 8C 00 00 
   798)    101189.5  Rx         058F  8  43 00 10 00 46 02 00 F0 
   799)    101190.5  Rx         060F  8  40 0C 10 00 00 00 00 00 
   800)    101227.3  Rx         010A  8  B4 14 33 04 99 8C 00 00 
   801)    101241.6  Rx         058F  8  80 0C 10 00 00 00 02 06 
   802)    101242.5  Rx         060F  8  2B 17 10 00 78 05 00 00 
   803)    101277.9  Rx         010A  8  47 DA 33 04 99 8C 00 00 
   804)    101288.9  Rx         070F  1  7F 
   805)    101301.6  Rx         058F  8  60 17 10 00 00 00 00 00 
   806)    101302.5  Rx         060F  8  23 16 10 01 68 10 01 00 
   807)    101328.3  Rx         010A  8  16 9F 34 04 99 8C 00 00 
   808)    101349.5  Rx         058F  8  60 16 10 01 00 00 00 00 
   809)    101350.6  Rx         060F  8  40 40 30 01 00 00 00 00 
   810)    101378.9  Rx         010A  8  7E 64 35 04 99 8C 00 00 
   811)    101389.5  Rx         058F  8  4B 40 30 01 00 00 00 00 
   812)    101390.6  Rx         060F  8  40 40 30 02 00 00 00 00 
   813)    101429.3  Rx         010A  8  C6 29 36 04 99 8C 00 00 
   814)    101430.3  Rx         058F  8  4B 40 30 02 01 00 00 00 
   815)    101431.4  Rx         060F  8  40 13 20 00 00 00 00 00 
   816)    101480.2  Rx         010A  8  3F F0 36 04 99 8C 00 00 
   817)    101481.5  Rx         058F  8  4F 13 20 00 19 00 00 00 
   818)    101482.5  Rx         060F  8  2F 32 30 00 01 00 00 00 
   819)    101499.3  Rx         0100  8  48 14 01 00 00 00 2C F7 
   820)    101499.9  Rx         0000  2  81 10 
   821)    101510.9  Rx         0701  1  05 
   822)    101529.5  Rx         058F  8  60 32 30 00 00 00 00 00 
   823)    101530.6  Rx         060F  8  40 00 10 00 00 00 00 00 
   824)    101531.5  Rx         010A  8  71 B5 37 04 99 8C 00 00 
   825)    101581.0  Rx         010A  8  68 7A 38 04 99 8C 00 00 
   826)    101582.0  Rx         058F  8  43 00 10 00 46 02 00 F0 
   827)    101583.0  Rx         060F  8  40 11 20 00 00 00 00 00 
   828)    101629.5  Rx         058F  8  4F 11 20 00 02 00 00 00 
   829)    101630.6  Rx         060F  8  40 08 10 00 00 00 00 00 
   830)    101631.6  Rx         010A  8  63 3F 39 04 99 8C 00 00 
   831)    101669.5  Rx         058F  8  41 08 10 00 20 00 00 00 
   832)    101670.6  Rx         060F  8  60 00 00 00 00 00 00 00 
   833)    101681.2  Rx         010A  8  AD 01 3A 04 99 8C 00 00 
   834)    101709.5  Rx         058F  8  00 62 65 74 61 2E 74 7A 
   835)    101710.6  Rx         060F  8  70 00 00 00 00 00 00 00 
   836)    101731.4  Rx         010A  8  89 C5 3A 04 99 8C 00 00 
   837)    101749.6  Rx         058F  8  10 20 20 20 00 00 00 00 
   838)    101750.6  Rx         060F  8  60 00 00 00 00 00 00 00 
   839)    101781.9  Rx         010A  8  CE 8A 3B 04 99 8C 00 00 
   840)    101789.6  Rx         058F  8  00 00 00 00 00 00 00 00 
   841)    101790.6  Rx         060F  8  70 00 00 00 00 00 00 00 
   842)    101829.6  Rx         058F  8  10 00 00 00 00 00 00 00 
   843)    101830.6  Rx         060F  8  60 00 00 00 00 00 00 00 
   844)    101832.6  Rx         010A  8  03 51 3C 04 99 8C 00 00 
   845)    101869.6  Rx         058F  8  07 00 00 00 00 00 00 00 
   846)    101870.6  Rx         060F  8  40 18 10 01 00 00 00 00 
   847)    101883.3  Rx         010A  8  25 17 3D 04 99 8C 00 00 
   848)    101899.1  Rx         0000  2  81 11 
   849)    101909.5  Rx         058F  8  43 18 10 01 0C 01 00 00 
   850)    101910.6  Rx         060F  8  40 12 20 00 00 00 00 00 
   851)    101933.8  Rx         010A  8  37 DC 3D 04 99 8C 00 00 
   852)    101961.6  Rx         058F  8  4F 12 20 00 04 00 00 00 
   853)    101962.6  Rx         060F  8  40 12 20 01 00 00 00 00 
   854)    101984.1  Rx         010A  8  D8 A0 3E 04 99 8C 00 00 
   855)    101987.6  Rx         075A  1  7F 
   856)    102009.5  Rx         058F  8  4F 12 20 01 1F 00 00 00 
   857)    102010.6  Rx         060F  8  40 12 20 02 00 00 00 00 
   858)    102034.7  Rx         010A  8  90 66 3F 04 99 8C 00 00 
   859)    102049.5  Rx         058F  8  4F 12 20 02 92 00 00 00 
   860)    102050.6  Rx         060F  8  40 12 20 03 00 00 00 00 
   861)    102085.1  Rx         010A  8  1D 2B 40 04 99 8C 00 00 
   862)    102101.5  Rx         058F  8  4F 12 20 03 00 00 00 00 
   863)    102102.6  Rx         060F  8  40 10 30 00 00 00 00 00 
   864)    102135.0  Rx         010A  8  61 EE 40 04 99 8C 00 00 
   865)    102149.6  Rx         058F  8  41 10 30 00 32 00 00 00 
   866)    102150.6  Rx         060F  8  60 00 00 00 00 00 00 00 
   867)    102185.6  Rx         010A  8  CB B3 41 04 99 8C 00 00 
   868)    102201.5  Rx         058F  8  00 76 6E 63 3A 2F 2F 31 
   869)    102202.5  Rx         060F  8  70 00 00 00 00 00 00 00 
   870)    102236.1  Rx         010A  8  11 79 42 04 99 8C 00 00 
   871)    102249.5  Rx         058F  8  10 2E 31 2E 31 2E 32 34 
   872)    102250.5  Rx         060F  8  60 00 00 00 00 00 00 00 
   873)    102286.4  Rx         010A  8  CC 3D 43 04 99 8C 00 00 
   874)    102299.4  Rx         0000  2  81 12 
   875)    102301.5  Rx         058F  8  00 32 3A 35 39 30 30 00 
   876)    102302.6  Rx         060F  8  70 00 00 00 00 00 00 00 
   877)    102336.9  Rx         010A  8  04 03 44 04 99 8C 00 00 
   878)    102349.6  Rx         058F  8  10 00 00 00 00 00 00 00 
   879)    102350.6  Rx         060F  8  60 00 00 00 00 00 00 00 
   880)    102387.5  Rx         010A  8  6F C8 44 04 99 8C 00 00 
   881)    102401.6  Rx         058F  8  00 00 00 00 00 00 00 00 
   882)    102402.6  Rx         060F  8  70 00 00 00 00 00 00 00 
   883)    102437.2  Rx         010A  8  99 8A 45 04 99 8C 00 00 
   884)    102449.6  Rx         058F  8  10 00 00 00 00 00 00 00 
   885)    102450.6  Rx         060F  8  60 00 00 00 00 00 00 00 
   886)    102487.8  Rx         010A  8  7D 50 46 04 99 8C 00 00 
   887)    102499.5  Rx         0100  8  30 18 01 00 00 00 00 00 
   888)    102501.6  Rx         058F  8  00 00 00 00 00 00 00 00 
   889)    102502.6  Rx         060F  8  70 00 00 00 00 00 00 00 
   890)    102512.9  Rx         0701  1  05 
   891)    102538.5  Rx         010A  8  A8 16 47 04 99 8C 00 00 
   892)    102549.6  Rx         058F  8  1D 00 00 00 00 00 00 00 
   893)    102550.7  Rx         060F  8  40 12 20 04 00 00 00 00 
   894)    102589.1  Rx         010A  8  2D DC 47 04 99 8C 00 00 
   895)    102590.1  Rx         058F  8  4F 12 20 04 08 00 00 00 
   896)    102591.1  Rx         060F  8  40 12 22 03 00 00 00 00 
   897)    102639.8  Rx         010A  8  29 A2 48 04 99 8C 00 00 
   898)    102641.5  Rx         058F  8  4F 12 22 03 03 00 00 00 
   899)    102642.6  Rx         060F  8  40 12 22 04 00 00 00 00 
   900)    102689.5  Rx         058F  8  4F 12 22 04 00 00 00 00 
   901)    102690.5  Rx         010A  8  52 67 49 04 99 8C 00 00 
   902)    102691.5  Rx         060F  8  40 10 20 00 00 00 00 00 
   903)    102700.0  Rx         0000  2  81 13 
   904)    102701.0  Rx         070F  1  7F 
   905)    102740.6  Rx         010A  8  03 2C 4A 04 99 8C 00 00 
   906)    102749.6  Rx         058F  8  4F 10 20 00 04 00 00 00 
   907)    102750.6  Rx         060F  8  40 13 20 01 00 00 00 00 
   908)    102789.6  Rx         058F  8  4F 13 20 01 03 00 00 00 
   909)    102790.7  Rx         060F  8  40 0A 10 00 00 00 00 00 
   910)    102791.6  Rx         010A  8  00 F1 4A 04 99 8C 00 00 
   911)    102829.6  Rx         058F  8  41 0A 10 00 20 00 00 00 
   912)    102830.6  Rx         060F  8  60 00 00 00 00 00 00 00 
   913)    102841.9  Rx         010A  8  6D B7 4B 04 99 8C 00 00 
   914)    102869.6  Rx         058F  8  00 39 30 30 30 31 33 34 
   915)    102870.6  Rx         060F  8  70 00 00 00 00 00 00 00 
   916)    102892.4  Rx         010A  8  D0 7C 4C 04 99 8C 00 00 
   917)    102909.5  Rx         058F  8  10 38 36 36 31 20 31 2E 
   918)    102910.6  Rx         060F  8  60 00 00 00 00 00 00 00 
   919)    102942.6  Rx         010A  8  B0 40 4D 04 99 8C 00 00 
   920)    102949.6  Rx         058F  8  00 30 32 00 00 00 00 00 
   921)    102950.6  Rx         060F  8  70 00 00 00 00 00 00 00 
   922)    102993.1  Rx         010A  8  2D 06 4E 04 99 8C 00 00 
   923)    103001.6  Rx         058F  8  10 00 00 00 00 00 00 00 
   924)    103002.7  Rx         060F  8  60 00 00 00 00 00 00 00 
   925)    103043.8  Rx         010A  8  24 CC 4E 04 99 8C 00 00 
   926)    103049.6  Rx         058F  8  07 00 00 00 00 00 00 00 
   927)    103050.7  Rx         060F  8  40 00 21 01 00 00 00 00 
   928)    103094.3  Rx         010A  8  91 91 4F 04 99 8C 00 00 
   929)    103100.1  Rx         0000  2  81 14 
   930)    103101.6  Rx         058F  8  4B 00 21 01 50 00 00 00 
   931)    103102.6  Rx         060F  8  40 10 21 01 00 00 00 00 
   932)    103112.7  Rx         0000  2  81 5A 
   933)    103127.6  Rx         075A  1  00 
   934)    103128.6  Rx         065A  8  40 00 10 00 00 00 00 00 
   935)    103138.0  Rx         05DA  8  43 00 10 00 4B 02 11 20 
   936)    103139.1  Rx         065A  8  40 0C 10 00 00 00 00 00 
   937)    103144.7  Rx         010A  8  70 56 50 04 99 8C 00 00 
   938)    103148.1  Rx         05DA  8  80 0C 10 00 00 00 02 06 
   939)    103149.1  Rx         065A  8  2B 17 10 00 78 05 00 00 
   940)    103158.1  Rx         05DA  8  60 17 10 00 00 00 00 00 
   941)    103159.1  Rx         065A  8  23 16 10 01 68 10 01 00 
   942)    103161.5  Rx         058F  8  4B 10 21 01 FA 00 00 00 
   943)    103162.6  Rx         060F  8  40 20 21 01 00 00 00 00 
   944)    103168.1  Rx         05DA  8  60 16 10 01 00 00 00 00 
   945)    103169.1  Rx         065A  8  40 40 30 01 00 00 00 00 
   946)    103178.1  Rx         05DA  8  80 40 30 01 00 00 02 06 
   947)    103179.1  Rx         065A  8  40 40 30 02 00 00 00 00 
   948)    103188.1  Rx         05DA  8  80 40 30 02 00 00 02 06 
   949)    103189.1  Rx         065A  8  40 13 20 00 00 00 00 00 
   950)    103195.0  Rx         010A  8  10 1B 51 04 99 8C 00 00 
   951)    103198.1  Rx         05DA  8  4F 13 20 00 08 00 00 00 
   952)    103199.1  Rx         065A  8  2F 32 30 00 01 00 00 00 
   953)    103208.1  Rx         05DA  8  60 32 30 00 00 00 00 00 
   954)    103209.1  Rx         065A  8  40 00 10 00 00 00 00 00 
   955)    103218.0  Rx         05DA  8  43 00 10 00 4B 02 11 20 
   956)    103219.1  Rx         065A  8  40 11 20 00 00 00 00 00 
   957)    103228.1  Rx         05DA  8  4F 11 20 00 0A 00 00 00 
   958)    103229.2  Rx         065A  8  40 08 10 00 00 00 00 00 
   959)    103238.0  Rx         05DA  8  41 08 10 00 11 00 00 00 
   960)    103239.1  Rx         065A  8  60 00 00 00 00 00 00 00 
   961)    103241.5  Rx         058F  8  4B 20 21 01 01 00 00 00 
   962)    103242.6  Rx         060F  8  40 13 20 02 00 00 00 00 
   963)    103245.5  Rx         010A  8  62 E0 51 04 99 8C 00 00 
   964)    103248.1  Rx         05DA  8  00 44 69 67 69 74 61 6C 
   965)    103249.1  Rx         065A  8  70 00 00 00 00 00 00 00 
   966)    103258.0  Rx         05DA  8  10 20 49 6E 6B 53 75 70 
   967)    103259.0  Rx         065A  8  60 00 00 00 00 00 00 00 
   968)    103268.1  Rx         05DA  8  09 70 6C 79 6B 53 75 70 
   969)    103269.1  Rx         065A  8  40 18 10 01 00 00 00 00 
   970)    103278.1  Rx         05DA  8  80 18 10 01 00 00 02 06 
   971)    103279.2  Rx         065A  8  40 12 20 00 00 00 00 00 
   972)    103288.1  Rx         05DA  8  4F 12 20 00 04 00 00 00 
   973)    103289.1  Rx         065A  8  40 12 20 01 00 00 00 00 
   974)    103296.1  Rx         010A  8  DF A5 52 04 99 8C 00 00 
   975)    103298.0  Rx         05DA  8  4F 12 20 01 0F 00 00 00 
   976)    103299.1  Rx         065A  8  40 12 20 02 00 00 00 00 
   977)    103308.1  Rx         05DA  8  4F 12 20 02 12 00 00 00 
   978)    103309.1  Rx         065A  8  40 12 20 03 00 00 00 00 
   979)    103318.1  Rx         05DA  8  4F 12 20 03 39 00 00 00 
   980)    103319.1  Rx         065A  8  40 10 30 00 00 00 00 00 
   981)    103328.1  Rx         05DA  8  80 10 30 00 00 00 02 06 
   982)    103329.1  Rx         065A  8  40 0A 10 00 00 00 00 00 
   983)    103338.0  Rx         05DA  8  41 0A 10 00 16 00 00 00 
   984)    103339.1  Rx         065A  8  60 00 00 00 00 00 00 00 
   985)    103346.6  Rx         010A  8  10 6B 53 04 99 8C 00 00 
   986)    103348.0  Rx         05DA  8  00 49 6E 6B 53 75 70 70 
   987)    103349.1  Rx         065A  8  70 00 00 00 00 00 00 00 
   988)    103358.1  Rx         05DA  8  10 6C 79 20 3A 20 31 39 
   989)    103359.1  Rx         065A  8  60 00 00 00 00 00 00 00 
   990)    103368.1  Rx         05DA  8  00 42 2E 30 34 2E 30 30 
   991)    103369.1  Rx         065A  8  70 00 00 00 00 00 00 00 
   992)    103378.0  Rx         05DA  8  1D 30 2E 30 34 2E 30 30 
   993)    103379.0  Rx         065A  8  2F 13 25 01 01 00 00 00 
   994)    103388.1  Rx         05DA  8  60 13 25 01 00 00 00 00 
   995)    103389.1  Rx         065A  8  40 59 25 01 00 00 00 00 
   996)    103390.1  Rx         058F  8  4F 13 20 02 00 00 00 00 
   997)    103391.2  Rx         060F  8  40 01 27 00 00 00 00 00 
   998)    103397.1  Rx         010A  8  62 30 54 04 99 8C 00 00 
   999)    103397.6  Rx         075A  1  7F 
  1000)    103398.5  Rx         05DA  8  4F 59 25 01 00 00 00 00 
  1001)    103399.6  Rx         065A  8  40 59 25 02 00 00 00 00 
  1002)    103408.1  Rx         05DA  8  4F 59 25 02 00 00 00 00 
  1003)    103409.1  Rx         065A  8  40 20 26 04 00 00 00 00 
  1004)    103418.0  Rx         05DA  8  43 20 26 04 2C 0D 07 02 
  1005)    103419.0  Rx         065A  8  40 20 26 03 00 00 00 00 
  1006)    103428.1  Rx         05DA  8  43 20 26 03 00 00 00 00 
  1007)    103429.2  Rx         065A  8  40 20 26 05 00 00 00 00 
  1008)    103438.0  Rx         05DA  8  43 20 26 05 00 00 00 00 
  1009)    103439.1  Rx         065A  8  23 21 26 01 02 00 00 00 
  1010)    103447.7  Rx         010A  8  4A F6 54 04 99 8C 00 00 
  1011)    103448.7  Rx         05DA  8  60 21 26 01 00 00 00 00 
  1012)    103449.7  Rx         065A  8  23 21 26 02 FE 00 01 00 
  1013)    103458.1  Rx         05DA  8  60 21 26 02 00 00 00 00 
  1014)    103459.0  Rx         065A  8  23 21 26 04 01 00 00 00 
  1015)    103468.1  Rx         05DA  8  60 21 26 04 00 00 00 00 
  1016)    103469.1  Rx         065A  8  23 21 26 05 61 00 00 00 
  1017)    103478.1  Rx         05DA  8  60 21 26 05 00 00 00 00 
  1018)    103479.1  Rx         065A  8  23 21 26 06 41 00 00 00 
  1019)    103488.1  Rx         05DA  8  60 21 26 06 00 00 00 00 
  1020)    103489.1  Rx         065A  8  40 00 1A 01 00 00 00 00 
  1021)    103498.0  Rx         05DA  8  43 00 1A 01 08 01 11 20 
  1022)    103498.9  Rx         010A  8  71 BC 55 04 99 8C 00 00 
  1023)    103500.0  Rx         0100  8  18 1C 01 00 00 00 00 00 
  1024)    103500.9  Rx         065A  8  40 11 20 01 00 00 00 00 
  1025)    103501.5  Rx         0000  2  81 15 
  1026)    103508.1  Rx         05DA  8  4F 11 20 01 01 00 00 00 
  1027)    103509.1  Rx         065A  8  40 00 1A 02 00 00 00 00 
  1028)    103512.9  Rx         0701  1  05 
  1029)    103518.0  Rx         05DA  8  43 00 1A 02 08 02 11 20 
  1030)    103519.0  Rx         065A  8  40 11 20 02 00 00 00 00 
  1031)    103528.1  Rx         05DA  8  4F 11 20 02 58 00 00 00 
  1032)    103529.1  Rx         065A  8  40 00 1A 03 00 00 00 00 
  1033)    103538.1  Rx         05DA  8  43 00 1A 03 08 00 20 20 
  1034)    103539.1  Rx         065A  8  40 20 20 00 00 00 00 00 
  1035)    103548.1  Rx         05DA  8  4F 20 20 00 05 00 00 00 
  1036)    103549.0  Rx         010A  8  70 81 56 04 99 8C 00 00 
  1037)    103550.0  Rx         065A  8  40 00 1A 04 00 00 00 00 
  1038)    103558.0  Rx         05DA  8  43 00 1A 04 08 01 10 20 
  1039)    103559.0  Rx         065A  8  40 10 20 01 00 00 00 00 
  1040)    103568.1  Rx         05DA  8  4F 10 20 01 00 00 00 00 
  1041)    103569.2  Rx         065A  8  40 00 1A 05 00 00 00 00 
  1042)    103578.0  Rx         05DA  8  43 00 1A 05 08 02 10 20 
  1043)    103579.1  Rx         065A  8  40 10 20 02 00 00 00 00 
  1044)    103588.1  Rx         05DA  8  4F 10 20 02 00 00 00 00 
  1045)    103589.1  Rx         065A  8  40 00 1A 06 00 00 00 00 
  1046)    103598.0  Rx         05DA  8  43 00 1A 06 08 03 10 20 
  1047)    103599.1  Rx         065A  8  40 10 20 03 00 00 00 00 
  1048)    103600.0  Rx         010A  8  23 46 57 04 99 8C 00 00 
  1049)    103608.1  Rx         05DA  8  4F 10 20 03 00 00 00 00 
  1050)    103609.1  Rx         065A  8  40 01 1A 01 00 00 00 00 
  1051)    103618.0  Rx         05DA  8  43 01 1A 01 08 01 13 20 
  1052)    103619.0  Rx         065A  8  40 13 20 01 00 00 00 00 
  1053)    103628.1  Rx         05DA  8  4F 13 20 01 00 00 00 00 
  1054)    103629.1  Rx         065A  8  40 01 1A 02 00 00 00 00 
  1055)    103638.0  Rx         05DA  8  43 01 1A 02 08 02 13 20 
  1056)    103639.0  Rx         065A  8  40 13 20 02 00 00 00 00 
  1057)    103648.1  Rx         05DA  8  4F 13 20 02 00 00 00 00 
  1058)    103649.2  Rx         065A  8  40 01 1A 03 00 00 00 00 
  1059)    103650.0  Rx         010A  8  9D 0B 58 04 99 8C 00 00 
  1060)    103658.0  Rx         05DA  8  43 01 1A 03 08 03 13 20 
  1061)    103659.0  Rx         065A  8  40 13 20 03 00 00 00 00 
  1062)    103668.1  Rx         05DA  8  4F 13 20 03 00 00 00 00 
  1063)    103669.1  Rx         065A  8  40 01 1A 04 00 00 00 00 
  1064)    103678.0  Rx         05DA  8  43 01 1A 04 08 04 13 20 
  1065)    103679.0  Rx         065A  8  40 13 20 04 00 00 00 00 
  1066)    103688.1  Rx         05DA  8  4F 13 20 04 00 00 00 00 
  1067)    103689.1  Rx         065A  8  40 01 1A 05 00 00 00 00 
  1068)    103698.0  Rx         05DA  8  43 01 1A 05 08 05 13 20 
  1069)    103699.0  Rx         065A  8  40 13 20 05 00 00 00 00 
  1070)    103700.4  Rx         010A  8  18 D1 58 04 99 8C 00 00 
  1071)    103708.1  Rx         05DA  8  4F 13 20 05 00 00 00 00 
  1072)    103709.1  Rx         065A  8  40 01 1A 06 00 00 00 00 
  1073)    103714.2  Rx         060F  8  40 01 27 00 00 00 00 00 
  1074)    103718.0  Rx         05DA  8  43 01 1A 06 08 06 13 20 
  1075)    103719.0  Rx         065A  8  40 13 20 06 00 00 00 00 
  1076)    103728.1  Rx         05DA  8  4F 13 20 06 00 00 00 00 
  1077)    103729.1  Rx         065A  8  40 01 1A 07 00 00 00 00 
  1078)    103738.0  Rx         05DA  8  43 01 1A 07 08 07 13 20 
  1079)    103739.0  Rx         065A  8  40 13 20 07 00 00 00 00 
  1080)    103748.1  Rx         05DA  8  4F 13 20 07 00 00 00 00 
  1081)    103749.1  Rx         065A  8  40 01 1A 08 00 00 00 00 
  1082)    103750.6  Rx         010A  8  34 95 59 04 99 8C 00 00 
  1083)    103758.0  Rx         05DA  8  43 01 1A 08 08 08 13 20 
  1084)    103759.1  Rx         065A  8  40 13 20 08 00 00 00 00 
  1085)    103768.1  Rx         05DA  8  4F 13 20 08 00 00 00 00 
  1086)    103769.1  Rx         065A  8  40 10 20 05 00 00 00 00 
  1087)    103778.0  Rx         05DA  8  4F 10 20 05 00 00 00 00 
  1088)    103779.1  Rx         065A  8  40 11 20 03 00 00 00 00 
  1089)    103788.1  Rx         05DA  8  4F 11 20 03 01 00 00 00 
  1090)    103789.1  Rx         065A  8  40 10 20 06 00 00 00 00 
  1091)    103798.1  Rx         05DA  8  4F 10 20 06 00 00 00 00 
  1092)    103799.1  Rx         065A  8  40 10 20 07 00 00 00 00 
  1093)    103801.1  Rx         010A  8  B6 5A 5A 04 99 8C 00 00 
  1094)    103808.1  Rx         05DA  8  4F 10 20 07 00 00 00 00 
  1095)    103809.1  Rx         065A  8  40 11 20 04 00 00 00 00 
  1096)    103818.0  Rx         05DA  8  4F 11 20 04 01 00 00 00 
  1097)    103819.0  Rx         065A  8  40 10 20 08 00 00 00 00 
  1098)    103828.1  Rx         05DA  8  4F 10 20 08 00 00 00 00 
  1099)    103829.1  Rx         065A  8  40 10 20 09 00 00 00 00 
  1100)    103838.0  Rx         05DA  8  4F 10 20 09 00 00 00 00 
  1101)    103839.1  Rx         065A  8  40 11 20 05 00 00 00 00 
  1102)    103848.1  Rx         05DA  8  4F 11 20 05 01 00 00 00 
  1103)    103849.2  Rx         065A  8  40 10 20 0A 00 00 00 00 
  1104)    103851.9  Rx         010A  8  20 21 5B 04 99 8C 00 00 
  1105)    103858.0  Rx         05DA  8  4F 10 20 0A 00 00 00 00 
  1106)    103859.1  Rx         065A  8  40 10 20 0B 00 00 00 00 
  1107)    103868.1  Rx         05DA  8  4F 10 20 0B 00 00 00 00 
  1108)    103869.1  Rx         065A  8  40 11 20 06 00 00 00 00 
  1109)    103878.0  Rx         05DA  8  4F 11 20 06 01 00 00 00 
  1110)    103879.1  Rx         065A  8  40 10 20 0C 00 00 00 00 
  1111)    103888.1  Rx         05DA  8  4F 10 20 0C 00 00 00 00 
  1112)    103889.1  Rx         065A  8  40 10 20 0D 00 00 00 00 
  1113)    103898.1  Rx         05DA  8  4F 10 20 0D 00 00 00 00 
  1114)    103899.1  Rx         065A  8  40 11 20 07 00 00 00 00 
  1115)    103901.0  Rx         0000  2  81 16 
  1116)    103902.5  Rx         010A  8  A5 E6 5B 04 99 8C 00 00 
  1117)    103908.1  Rx         05DA  8  4F 11 20 07 01 00 00 00 
  1118)    103909.1  Rx         065A  8  40 10 20 0E 00 00 00 00 
  1119)    103918.0  Rx         05DA  8  4F 10 20 0E 00 00 00 00 
  1120)    103919.1  Rx         065A  8  40 10 20 0F 00 00 00 00 
  1121)    103928.1  Rx         05DA  8  4F 10 20 0F 00 00 00 00 
  1122)    103929.2  Rx         065A  8  40 11 20 08 00 00 00 00 
  1123)    103938.0  Rx         05DA  8  4F 11 20 08 01 00 00 00 
  1124)    103939.1  Rx         065A  8  40 10 20 10 00 00 00 00 
  1125)    103948.1  Rx         05DA  8  4F 10 20 10 00 00 00 00 
  1126)    103949.1  Rx         065A  8  40 10 20 11 00 00 00 00 
  1127)    103953.0  Rx         010A  8  F3 AB 5C 04 99 8C 00 00 
  1128)    103958.0  Rx         05DA  8  4F 10 20 11 00 00 00 00 
  1129)    103959.1  Rx         065A  8  40 11 20 09 00 00 00 00 
  1130)    103968.1  Rx         05DA  8  4F 11 20 09 01 00 00 00 
  1131)    103969.1  Rx         065A  8  40 10 20 12 00 00 00 00 
  1132)    103978.1  Rx         05DA  8  4F 10 20 12 00 00 00 00 
  1133)    103979.1  Rx         065A  8  40 10 20 13 00 00 00 00 
  1134)    103988.1  Rx         05DA  8  4F 10 20 13 00 00 00 00 
  1135)    103989.1  Rx         065A  8  40 11 20 0A 00 00 00 00 
  1136)    103998.0  Rx         05DA  8  4F 11 20 0A 01 00 00 00 
  1137)    103999.0  Rx         065A  8  40 10 20 14 00 00 00 00 
  1138)    104003.6  Rx         010A  8  77 71 5D 04 99 8C 00 00 
  1139)    104008.0  Rx         05DA  8  4F 10 20 14 00 00 00 00 
  1140)    104009.1  Rx         065A  8  2F 11 25 02 00 00 00 00 
  1141)    104018.0  Rx         05DA  8  60 11 25 02 00 00 00 00 
  1142)    104019.0  Rx         065A  8  2F 11 25 02 00 00 00 00 
  1143)    104028.1  Rx         05DA  8  60 11 25 02 00 00 00 00 
  1144)    104029.1  Rx         065A  8  2F 11 25 01 00 00 00 00 
  1145)    104038.0  Rx         05DA  8  60 11 25 01 00 00 00 00 
  1146)    104039.0  Rx         065A  8  2F 11 25 01 02 00 00 00 
  1147)    104048.1  Rx         05DA  8  60 11 25 01 00 00 00 00 
  1148)    104049.1  Rx         065A  8  40 11 20 03 00 00 00 00 
  1149)    104054.2  Rx         010A  8  13 37 5E 04 99 8C 00 00 
  1150)    104058.0  Rx         05DA  8  4F 11 20 03 01 00 00 00 
  1151)    104059.0  Rx         065A  8  40 11 20 04 00 00 00 00 
  1152)    104068.0  Rx         05DA  8  4F 11 20 04 01 00 00 00 
  1153)    104069.1  Rx         065A  8  40 11 20 05 00 00 00 00 
  1154)    104078.1  Rx         05DA  8  4F 11 20 05 01 00 00 00 
  1155)    104079.1  Rx         065A  8  40 11 20 06 00 00 00 00 
  1156)    104088.1  Rx         05DA  8  4F 11 20 06 01 00 00 00 
  1157)    104089.1  Rx         065A  8  40 11 20 07 00 00 00 00 
  1158)    104089.6  Rx         070F  1  7F 
  1159)    104098.0  Rx         05DA  8  4F 11 20 07 01 00 00 00 
  1160)    104099.1  Rx         065A  8  40 11 20 08 00 00 00 00 
  1161)    104104.9  Rx         010A  8  22 FD 5E 04 99 8C 00 00 
  1162)    104108.1  Rx         05DA  8  4F 11 20 08 01 00 00 00 
  1163)    104109.1  Rx         065A  8  40 11 20 09 00 00 00 00 
  1164)    104114.9  Rx         060F  8  80 01 27 00 00 00 04 05 
  1165)    104115.9  Rx         060F  8  40 01 23 01 00 00 00 00 
  1166)    104118.0  Rx         05DA  8  4F 11 20 09 01 00 00 00 
  1167)    104119.0  Rx         065A  8  40 11 20 0A 00 00 00 00 
  1168)    104128.1  Rx         05DA  8  4F 11 20 0A 01 00 00 00 
  1169)    104155.2  Rx         010A  8  D5 C1 5F 04 99 8C 00 00 
  1170)    104205.7  Rx         010A  8  07 87 60 04 99 8C 00 00 
  1171)    104241.6  Rx         058F  8  4B 01 23 01 96 00 00 00 
  1172)    104242.6  Rx         060F  8  40 11 23 01 00 00 00 00 
  1173)    104256.4  Rx         010A  8  39 4D 61 04 99 8C 00 00 
  1174)    104289.5  Rx         058F  8  4B 11 23 01 90 01 00 00 
  1175)    104290.6  Rx         060F  8  40 00 27 00 00 00 00 00 
  1176)    104301.5  Rx         0000  2  81 17 
  1177)    104307.1  Rx         010A  8  13 13 62 04 99 8C 00 00 
  1178)    104329.6  Rx         058F  8  4F 00 27 00 01 00 00 00 
  1179)    104330.6  Rx         060F  8  40 00 23 01 00 00 00 00 
  1180)    104357.7  Rx         010A  8  E3 D8 62 04 99 8C 00 00 
  1181)    104381.5  Rx         058F  8  4B 00 23 01 96 00 00 00 
  1182)    104382.6  Rx         060F  8  40 10 23 01 00 00 00 00 
  1183)    104408.2  Rx         010A  8  02 9E 63 04 99 8C 00 00 
  1184)    104429.5  Rx         058F  8  4B 10 23 01 90 01 00 00 
  1185)    104430.6  Rx         060F  8  40 13 20 03 00 00 00 00 
  1186)    104458.8  Rx         010A  8  92 63 64 04 99 8C 00 00 
  1187)    104469.5  Rx         058F  8  4F 13 20 03 00 00 00 00 
  1188)    104470.6  Rx         060F  8  40 13 20 04 00 00 00 00 
  1189)    104499.5  Rx         0100  8  00 20 01 00 00 00 2A F7 
  1190)    104509.5  Rx         058F  8  4F 13 20 04 00 00 00 00 
  1191)    104510.5  Rx         010A  8  41 2A 65 04 99 8C 00 00 
  1192)    104511.4  Rx         060F  8  2B 00 25 01 50 00 00 00 
  1193)    104514.9  Rx         0701  1  05 
  1194)    104559.9  Rx         010A  8  BF EE 65 04 99 8C 00 00 
  1195)    104569.6  Rx         058F  8  60 00 25 01 00 00 00 00 
  1196)    104570.6  Rx         060F  8  2B 00 26 01 3C 00 00 00 
  1197)    104609.6  Rx         058F  8  60 00 26 01 00 00 00 00 
  1198)    104610.5  Rx         010A  8  1B B4 66 04 99 8C 00 00 
  1199)    104611.4  Rx         060F  8  2B 10 26 01 64 00 00 00 
  1200)    104661.2  Rx         010A  8  94 7A 67 04 99 8C 00 00 
  1201)    104669.6  Rx         058F  8  60 10 26 01 00 00 00 00 
  1202)    104670.6  Rx         060F  8  2B 00 27 01 96 00 00 00 
  1203)    104702.2  Rx         0000  2  81 18 
  1204)    104709.6  Rx         058F  8  60 00 27 01 00 00 00 00 
  1205)    104710.6  Rx         060F  8  2B 00 28 01 82 00 00 00 
  1206)    104711.8  Rx         010A  8  F7 3F 68 04 99 8C 00 00 
  1207)    104749.6  Rx         058F  8  60 00 28 01 00 00 00 00 
  1208)    104750.6  Rx         060F  8  2B 10 28 01 AA 00 00 00 
  1209)    104762.1  Rx         010A  8  53 04 69 04 99 8C 00 00 
  1210)    104789.6  Rx         058F  8  60 10 28 01 00 00 00 00 
  1211)    104790.6  Rx         060F  8  2F 11 25 01 32 00 00 00 
  1212)    104807.6  Rx         075A  1  7F 
  1213)    104812.7  Rx         010A  8  29 CA 69 04 99 8C 00 00 
  1214)    104829.5  Rx         058F  8  60 11 25 01 00 00 00 00 
  1215)    104830.5  Rx         060F  8  2F 11 25 01 32 00 00 00 
  1216)    104863.4  Rx         010A  8  1C 90 6A 04 99 8C 00 00 
  1217)    104869.6  Rx         058F  8  60 11 25 01 00 00 00 00 
  1218)    104870.6  Rx         060F  8  2F 11 27 03 FF 00 00 00 
  1219)    104913.9  Rx         010A  8  53 55 6B 04 99 8C 00 00 
  1220)    104921.5  Rx         058F  8  60 11 27 03 00 00 00 00 
  1221)    104922.6  Rx         060F  8  2F 11 27 01 01 00 00 00 
  1222)    104963.8  Rx         010A  8  84 18 6C 04 99 8C 00 00 
  1223)    104969.6  Rx         058F  8  60 11 27 01 00 00 00 00 
  1224)    104970.6  Rx         060F  8  2F 11 27 01 01 00 00 00 
  1225)    105014.4  Rx         010A  8  FF DD 6C 04 99 8C 00 00 
  1226)    105021.5  Rx         058F  8  60 11 27 01 00 00 00 00 
  1227)    105022.6  Rx         060F  8  23 00 18 01 8F 01 00 00 
  1228)    105065.2  Rx         010A  8  7B A4 6D 04 99 8C 00 00 
  1229)    105069.6  Rx         058F  8  60 00 18 01 00 00 00 00 
  1230)    105070.6  Rx         060F  8  2F 00 18 02 FF 00 00 00 
  1231)    105102.1  Rx         0000  2  81 19 
  1232)    105115.1  Rx         010A  8  88 67 6E 04 99 8C 00 00 
  1233)    105121.6  Rx         058F  8  60 00 18 02 00 00 00 00 
  1234)    105122.6  Rx         060F  8  2F 00 1A 00 00 00 00 00 
  1235)    105165.7  Rx         010A  8  40 2D 6F 04 99 8C 00 00 
  1236)    105169.5  Rx         058F  8  60 00 1A 00 00 00 00 00 
  1237)    105170.6  Rx         060F  8  23 00 1A 01 10 01 00 30 
  1238)    105216.3  Rx         010A  8  D8 F2 6F 04 99 8C 00 00 
  1239)    105221.5  Rx         058F  8  60 00 1A 01 00 00 00 00 
  1240)    105222.6  Rx         060F  8  40 00 30 01 00 00 00 00 
  1241)    105266.9  Rx         010A  8  6B B8 70 04 99 8C 00 00 
  1242)    105269.5  Rx         058F  8  4B 00 30 01 00 00 00 00 
  1243)    105270.6  Rx         060F  8  23 00 1A 02 08 02 00 30 
  1244)    105317.3  Rx         010A  8  4A 7D 71 04 99 8C 00 00 
  1245)    105321.6  Rx         058F  8  60 00 1A 02 00 00 00 00 
  1246)    105322.6  Rx         060F  8  40 00 30 02 00 00 00 00 
  1247)    105367.8  Rx         010A  8  B9 42 72 04 99 8C 00 00 
  1248)    105369.5  Rx         058F  8  4F 00 30 02 00 00 00 00 
  1249)    105370.6  Rx         060F  8  23 00 1A 03 10 01 00 20 
  1250)    105418.4  Rx         010A  8  FB 07 73 04 99 8C 00 00 
  1251)    105421.6  Rx         058F  8  60 00 1A 03 00 00 00 00 
  1252)    105422.6  Rx         060F  8  40 00 20 01 00 00 00 00 
  1253)    105468.9  Rx         010A  8  78 CD 73 04 99 8C 00 00 
  1254)    105469.9  Rx         058F  8  4B 00 20 01 00 00 00 00 
  1255)    105470.9  Rx         060F  8  23 00 1A 04 08 01 10 22 
  1256)    105488.9  Rx         070F  1  7F 
  1257)    105499.5  Rx         0100  8  E8 23 01 00 00 00 00 00 
  1258)    105502.3  Rx         0000  2  81 1A 
  1259)    105515.5  Rx         0701  1  05 
  1260)    105519.6  Rx         010A  8  B1 93 74 04 99 8C 00 00 
  1261)    105521.6  Rx         058F  8  60 00 1A 04 00 00 00 00 
  1262)    105522.5  Rx         060F  8  40 10 22 01 00 00 00 00 
  1263)    105569.5  Rx         058F  8  4F 10 22 01 01 00 00 00 
  1264)    105570.5  Rx         010A  8  E7 58 75 04 99 8C 00 00 
  1265)    105571.4  Rx         060F  8  23 00 1A 05 08 02 10 22 
  1266)    105620.7  Rx         010A  8  5C 1E 76 04 99 8C 00 00 
  1267)    105629.5  Rx         058F  8  60 00 1A 05 00 00 00 00 
  1268)    105630.6  Rx         060F  8  40 10 22 02 00 00 00 00 
  1269)    105669.5  Rx         058F  8  4F 10 22 02 00 00 00 00 
  1270)    105670.5  Rx         060F  8  23 00 1A 06 08 02 11 20 
  1271)    105671.5  Rx         010A  8  32 E3 76 04 99 8C 00 00 
  1272)    105709.5  Rx         058F  8  60 00 1A 06 00 00 00 00 
  1273)    105710.6  Rx         060F  8  40 11 20 02 00 00 00 00 
  1274)    105721.3  Rx         010A  8  5C A7 77 04 99 8C 00 00 
  1275)    105749.5  Rx         058F  8  4F 11 20 02 18 00 00 00 
  1276)    105750.5  Rx         060F  8  23 01 18 01 8F 02 00 00 
  1277)    105771.7  Rx         010A  8  5A 6C 78 04 99 8C 00 00 
  1278)    105789.5  Rx         058F  8  60 01 18 01 00 00 00 00 
  1279)    105790.6  Rx         060F  8  2F 01 18 02 FF 00 00 00 
  1280)    105822.1  Rx         010A  8  44 31 79 04 99 8C 00 00 
  1281)    105829.5  Rx         058F  8  60 01 18 02 00 00 00 00 
  1282)    105830.6  Rx         060F  8  2F 01 1A 00 00 00 00 00 
  1283)    105869.6  Rx         058F  8  60 01 1A 00 00 00 00 00 
  1284)    105870.6  Rx         060F  8  23 01 1A 01 08 01 10 20 
  1285)    105871.8  Rx         010A  8  8A F3 79 04 99 8C 00 00 
  1286)    105902.8  Rx         0000  2  81 1B 
  1287)    105909.6  Rx         058F  8  60 01 1A 01 00 00 00 00 
  1288)    105910.6  Rx         060F  8  40 10 20 01 00 00 00 00 
  1289)    105922.0  Rx         010A  8  94 B7 7A 04 99 8C 00 00 
  1290)    105961.6  Rx         058F  8  4F 10 20 01 00 00 00 00 
  1291)    105962.6  Rx         060F  8  23 01 1A 02 08 02 10 20 
  1292)    105972.8  Rx         010A  8  CD 7D 7B 04 99 8C 00 00 
  1293)    106009.6  Rx         058F  8  60 01 1A 02 00 00 00 00 
  1294)    106010.6  Rx         060F  8  40 10 20 02 00 00 00 00 
  1295)    106023.3  Rx         010A  8  EF 42 7C 04 99 8C 00 00 
  1296)    106049.6  Rx         058F  8  4F 10 20 02 00 00 00 00 
  1297)    106050.6  Rx         060F  8  23 01 1A 03 08 03 10 20 
  1298)    106074.0  Rx         010A  8  03 09 7D 04 99 8C 00 00 
  1299)    106089.6  Rx         058F  8  60 01 1A 03 00 00 00 00 
  1300)    106090.6  Rx         060F  8  40 10 20 03 00 00 00 00 
  1301)    106124.2  Rx         010A  8  27 CD 7D 04 99 8C 00 00 
  1302)    106129.6  Rx         058F  8  4F 10 20 03 00 00 00 00 
  1303)    106130.6  Rx         060F  8  23 01 1A 04 08 04 10 20 
  1304)    106174.8  Rx         010A  8  EC 92 7E 04 99 8C 00 00 
  1305)    106181.6  Rx         058F  8  60 01 1A 04 00 00 00 00 
  1306)    106182.6  Rx         060F  8  40 10 20 04 00 00 00 00 
  1307)    106217.5  Rx         075A  1  7F 
  1308)    106225.2  Rx         010A  8  9F 57 7F 04 99 8C 00 00 
  1309)    106229.6  Rx         058F  8  4F 10 20 04 00 00 00 00 
  1310)    106230.6  Rx         060F  8  2F 00 1A 00 06 00 00 00 
  1311)    106275.8  Rx         010A  8  71 1D 80 04 99 8C 00 00 
  1312)    106281.6  Rx         058F  8  60 00 1A 00 00 00 00 00 
  1313)    106282.6  Rx         060F  8  2F 01 1A 00 04 00 00 00 
  1314)    106303.0  Rx         0000  2  81 1C 
  1315)    106326.3  Rx         010A  8  A6 E2 80 04 99 8C 00 00 
  1316)    106329.6  Rx         058F  8  60 01 1A 00 00 00 00 00 
  1317)    106330.2  Rx         0000  2  01 0F 
  1318)    106331.1  Rx         060F  8  40 13 20 05 00 00 00 00 
  1319)    106369.6  Rx         018F  8  00 00 00 00 00 01 00 18 
  1320)    106376.9  Rx         010A  8  3D A8 81 04 99 8C 00 00 
  1321)    106381.2  Rx         028F  4  00 00 00 00 
  1322)    106389.5  Rx         058F  8  4F 13 20 05 00 00 00 00 
  1323)    106390.6  Rx         060F  8  40 13 20 06 00 00 00 00 
  1324)    106427.4  Rx         010A  8  9C 6D 82 04 99 8C 00 00 
  1325)    106441.6  Rx         058F  8  4F 13 20 06 00 00 00 00 
  1326)    106442.6  Rx         060F  8  40 13 20 07 00 00 00 00 
  1327)    106477.9  Rx         010A  8  F7 32 83 04 99 8C 00 00 
  1328)    106489.6  Rx         058F  8  4F 13 20 07 00 00 00 00 
  1329)    106490.6  Rx         060F  8  40 13 20 08 00 00 00 00 
  1330)    106499.6  Rx         0100  8  D0 27 01 00 00 00 2A F7 
  1331)    106517.3  Rx         0701  1  05 
  1332)    106528.6  Rx         010A  8  25 F9 83 04 99 8C 00 00 
  1333)    106541.6  Rx         058F  8  4F 13 20 08 00 00 00 00 
  1334)    106542.6  Rx         060F  8  40 13 20 09 00 00 00 00 
  1335)    106579.2  Rx         010A  8  8C BE 84 04 99 8C 00 00 
  1336)    106589.6  Rx         058F  8  4F 13 20 09 00 00 00 00 
  1337)    106590.7  Rx         060F  8  40 13 20 0A 00 00 00 00 
  1338)    106629.5  Rx         010A  8  2B 83 85 04 99 8C 00 00 
  1339)    106630.5  Rx         058F  8  4F 13 20 0A 00 00 00 00 
  1340)    106631.6  Rx         060F  8  40 13 20 0B 00 00 00 00 
  1341)    106680.1  Rx         010A  8  BD 48 86 04 99 8C 00 00 
  1342)    106681.5  Rx         058F  8  4F 13 20 0B 00 00 00 00 
  1343)    106682.7  Rx         060F  8  40 13 20 0C 00 00 00 00 
  1344)    106703.0  Rx         0000  2  81 1D 
  1345)    106729.5  Rx         058F  8  4F 13 20 0C 00 00 00 00 
  1346)    106730.5  Rx         010A  8  D6 0C 87 04 99 8C 00 00 
  1347)    106731.5  Rx         060F  8  40 13 20 0D 00 00 00 00 
  1348)    106780.8  Rx         010A  8  0A D2 87 04 99 8C 00 00 
  1349)    106789.5  Rx         058F  8  4F 13 20 0D 00 00 00 00 
  1350)    106790.6  Rx         060F  8  40 13 20 0E 00 00 00 00 
  1351)    106829.5  Rx         058F  8  4F 13 20 0E 00 00 00 00 
  1352)    106830.6  Rx         060F  8  40 13 20 0F 00 00 00 00 
  1353)    106831.5  Rx         010A  8  FB 97 88 04 99 8C 00 00 
  1354)    106869.5  Rx         058F  8  4F 13 20 0F 00 00 00 00 
  1355)    106870.6  Rx         060F  8  40 13 20 10 00 00 00 00 
  1356)    106882.1  Rx         010A  8  BB 5D 89 04 99 8C 00 00 
  1357)    106888.9  Rx         070F  1  05 
  1358)    106909.5  Rx         058F  8  4F 13 20 10 00 00 00 00 
  1359)    106910.6  Rx         060F  8  40 13 20 11 00 00 00 00 
  1360)    106932.3  Rx         010A  8  E6 21 8A 04 99 8C 00 00 
  1361)    106949.5  Rx         058F  8  4F 13 20 11 00 00 00 00 
  1362)    106950.7  Rx         060F  8  40 13 20 12 00 00 00 00 
  1363)    106982.9  Rx         010A  8  6C E7 8A 04 99 8C 00 00 
  1364)    106989.6  Rx         058F  8  4F 13 20 12 00 00 00 00 
  1365)    106990.7  Rx         060F  8  40 13 20 13 00 00 00 00 
  1366)    107033.3  Rx         010A  8  5E AC 8B 04 99 8C 00 00 
  1367)    107041.6  Rx         058F  8  4F 13 20 13 00 00 00 00 
  1368)    107042.7  Rx         060F  8  40 13 20 14 00 00 00 00 
  1369)    107083.4  Rx         010A  8  1B 70 8C 04 99 8C 00 00 
  1370)    107089.6  Rx         058F  8  4F 13 20 14 00 00 00 00 
  1371)    107090.6  Rx         060F  8  40 13 20 15 00 00 00 00 
  1372)    107103.4  Rx         0000  2  81 1E 
  1373)    107133.8  Rx         010A  8  0B 35 8D 04 99 8C 00 00 
  1374)    107141.6  Rx         058F  8  4F 13 20 15 00 00 00 00 
  1375)    107142.6  Rx         060F  8  40 13 20 16 00 00 00 00 
  1376)    107184.4  Rx         010A  8  B6 FA 8D 04 99 8C 00 00 
  1377)    107189.6  Rx         058F  8  4F 13 20 16 00 00 00 00 
  1378)    107190.6  Rx         060F  8  40 13 20 17 00 00 00 00 
  1379)    107235.1  Rx         010A  8  9F C0 8E 04 99 8C 00 00 
  1380)    107241.6  Rx         058F  8  4F 13 20 17 00 00 00 00 
  1381)    107242.7  Rx         060F  8  40 13 20 18 00 00 00 00 
  1382)    107285.7  Rx         010A  8  A4 86 8F 04 99 8C 00 00 
  1383)    107289.6  Rx         058F  8  4F 13 20 18 00 00 00 00 
  1384)    107290.6  Rx         060F  8  40 13 20 19 00 00 00 00 
  1385)    107336.3  Rx         010A  8  06 4C 90 04 99 8C 00 00 
  1386)    107341.6  Rx         058F  8  4F 13 20 19 00 00 00 00 
  1387)    107369.6  Rx         018F  8  00 00 00 00 00 01 00 18 
  1388)    107381.2  Rx         028F  4  00 00 00 00 
  1389)    107386.9  Rx         010A  8  E8 11 91 04 99 8C 00 00 
  1390)    107437.3  Rx         010A  8  87 D6 91 04 99 8C 00 00 
  1391)    107487.0  Rx         010A  8  EB 98 92 04 99 8C 00 00 
  1392)    107500.2  Rx         0100  8  B9 2B 01 00 00 00 77 09 
  1393)    107504.0  Rx         0000  2  81 1F 
  1394)    107518.2  Rx         0701  1  05 
  1395)    107537.4  Rx         010A  8  CD 5D 93 04 99 8C 00 00 
  1396)    107587.8  Rx         010A  8  96 22 94 04 99 8C 00 00 
  1397)    107627.5  Rx         075A  1  7F 
  1398)    107638.4  Rx         010A  8  FC E7 94 04 99 8C 00 00 
  1399)    107688.8  Rx         010A  8  F1 AC 95 04 99 8C 00 00 
  1400)    107739.0  Rx         010A  8  3C 71 96 04 99 8C 00 00 
  1401)    107789.6  Rx         010A  8  98 36 97 04 99 8C 00 00 
  1402)    107839.9  Rx         010A  8  8F FB 97 04 99 8C 00 00 
  1403)    107890.6  Rx         010A  8  58 C1 98 04 99 8C 00 00 
  1404)    107904.4  Rx         0000  2  81 20 
  1405)    107940.9  Rx         010A  8  FA 85 99 04 99 8C 00 00 
  1406)    107991.3  Rx         010A  8  C5 4A 9A 04 99 8C 00 00 
  1407)    108019.0  Rx         065A  8  40 59 20 01 00 00 00 00 
  1408)    108028.1  Rx         05DA  8  4F 59 20 01 00 00 00 00 
  1409)    108029.1  Rx         065A  8  40 59 20 02 00 00 00 00 
  1410)    108038.0  Rx         05DA  8  4F 59 20 02 00 00 00 00 
  1411)    108039.0  Rx         065A  8  40 59 20 03 00 00 00 00 
  1412)    108042.0  Rx         010A  8  8F 10 9B 04 99 8C 00 00 
  1413)    108048.0  Rx         05DA  8  4F 59 20 03 00 00 00 00 
  1414)    108049.1  Rx         065A  8  40 59 20 04 00 00 00 00 
  1415)    108058.0  Rx         05DA  8  4F 59 20 04 00 00 00 00 
  1416)    108059.0  Rx         065A  8  40 59 20 05 00 00 00 00 
  1417)    108068.1  Rx         05DA  8  4F 59 20 05 00 00 00 00 
  1418)    108069.1  Rx         065A  8  40 59 20 06 00 00 00 00 
  1419)    108078.0  Rx         05DA  8  4F 59 20 06 00 00 00 00 
  1420)    108079.1  Rx         065A  8  40 59 20 07 00 00 00 00 
  1421)    108088.1  Rx         05DA  8  4F 59 20 07 00 00 00 00 
  1422)    108089.1  Rx         065A  8  40 59 20 08 00 00 00 00 
  1423)    108092.5  Rx         010A  8  D4 D5 9B 04 99 8C 00 00 
  1424)    108098.0  Rx         05DA  8  4F 59 20 08 00 00 00 00 
  1425)    108099.0  Rx         065A  8  40 59 20 09 00 00 00 00 
  1426)    108108.1  Rx         05DA  8  4F 59 20 09 00 00 00 00 
  1427)    108109.1  Rx         065A  8  40 00 20 01 00 00 00 00 
  1428)    108118.0  Rx         05DA  8  4B 00 20 01 00 00 00 00 
  1429)    108119.1  Rx         065A  8  40 01 20 01 00 00 00 00 
  1430)    108128.1  Rx         05DA  8  4B 01 20 01 00 00 00 00 
  1431)    108129.1  Rx         065A  8  40 00 20 02 00 00 00 00 
  1432)    108138.0  Rx         05DA  8  4B 00 20 02 00 00 00 00 
  1433)    108139.0  Rx         065A  8  40 01 20 02 00 00 00 00 
  1434)    108142.8  Rx         010A  8  2B 9A 9C 04 99 8C 00 00 
  1435)    108148.1  Rx         05DA  8  4B 01 20 02 00 00 00 00 
  1436)    108149.2  Rx         065A  8  40 00 20 03 00 00 00 00 
  1437)    108158.0  Rx         05DA  8  4B 00 20 03 00 00 00 00 
  1438)    108159.1  Rx         065A  8  40 01 20 03 00 00 00 00 
  1439)    108168.1  Rx         05DA  8  4B 01 20 03 00 00 00 00 
  1440)    108169.1  Rx         065A  8  40 00 20 04 00 00 00 00 
  1441)    108178.0  Rx         05DA  8  4B 00 20 04 00 00 00 00 
  1442)    108179.1  Rx         065A  8  40 01 20 04 00 00 00 00 
  1443)    108188.1  Rx         05DA  8  4B 01 20 04 00 00 00 00 
  1444)    108189.1  Rx         065A  8  40 00 20 05 00 00 00 00 
  1445)    108193.3  Rx         010A  8  C9 5F 9D 04 99 8C 00 00 
  1446)    108198.0  Rx         05DA  8  4B 00 20 05 00 00 00 00 
  1447)    108199.1  Rx         065A  8  40 01 20 05 00 00 00 00 
  1448)    108208.1  Rx         05DA  8  4B 01 20 05 00 00 00 00 
  1449)    108209.1  Rx         065A  8  40 00 20 06 00 00 00 00 
  1450)    108218.0  Rx         05DA  8  4B 00 20 06 00 00 00 00 
  1451)    108219.1  Rx         065A  8  40 01 20 06 00 00 00 00 
  1452)    108228.0  Rx         05DA  8  4B 01 20 06 00 00 00 00 
  1453)    108229.1  Rx         065A  8  40 00 20 07 00 00 00 00 
  1454)    108238.0  Rx         05DA  8  4B 00 20 07 00 00 00 00 
  1455)    108239.0  Rx         065A  8  40 01 20 07 00 00 00 00 
  1456)    108243.7  Rx         010A  8  C9 24 9E 04 99 8C 00 00 
  1457)    108248.0  Rx         05DA  8  4B 01 20 07 00 00 00 00 
  1458)    108249.1  Rx         065A  8  40 00 20 08 00 00 00 00 
  1459)    108258.0  Rx         05DA  8  4B 00 20 08 00 00 00 00 
  1460)    108259.1  Rx         065A  8  40 01 20 08 00 00 00 00 
  1461)    108268.1  Rx         05DA  8  4B 01 20 08 00 00 00 00 
  1462)    108269.1  Rx         065A  8  40 02 20 01 00 00 00 00 
  1463)    108278.0  Rx         05DA  8  4B 02 20 01 00 00 00 00 
  1464)    108279.1  Rx         065A  8  40 02 32 00 00 00 00 00 
  1465)    108288.0  Rx         05DA  8  41 02 32 00 25 00 00 00 
  1466)    108289.0  Rx         065A  8  60 00 00 00 00 00 00 00 
  1467)    108289.5  Rx         070F  1  05 
  1468)    108294.3  Rx         010A  8  42 EA 9E 04 99 8C 00 00 
  1469)    108298.0  Rx         05DA  8  00 01 06 01 00 00 06 02 
  1470)    108299.0  Rx         065A  8  70 00 00 00 00 00 00 00 
  1471)    108305.3  Rx         0000  2  81 21 
  1472)    108308.1  Rx         05DA  8  10 00 00 06 03 00 00 06 
  1473)    108309.1  Rx         065A  8  60 00 00 00 00 00 00 00 
  1474)    108318.0  Rx         05DA  8  00 04 00 00 06 05 00 00 
  1475)    108319.0  Rx         065A  8  70 00 00 00 00 00 00 00 
  1476)    108328.0  Rx         05DA  8  10 06 06 00 00 06 07 00 
  1477)    108329.1  Rx         065A  8  60 00 00 00 00 00 00 00 
  1478)    108338.0  Rx         05DA  8  00 00 06 08 00 00 06 09 
  1479)    108339.1  Rx         065A  8  70 00 00 00 00 00 00 00 
  1480)    108345.0  Rx         010A  8  64 B0 9F 04 99 8C 00 00 
  1481)    108348.1  Rx         05DA  8  1B 00 00 08 00 00 06 09 
  1482)    108349.1  Rx         065A  8  2F 59 25 01 00 00 00 00 
  1483)    108358.0  Rx         05DA  8  60 59 25 01 00 00 00 00 
  1484)    108359.0  Rx         065A  8  2F 59 25 01 00 00 00 00 
  1485)    108368.0  Rx         05DA  8  60 59 25 01 00 00 00 00 
  1486)    108369.0  Rx         065A  8  2F 59 25 01 00 00 00 00 
  1487)    108370.0  Rx         018F  8  00 00 00 00 00 01 00 18 
  1488)    108378.0  Rx         05DA  8  60 59 25 01 00 00 00 00 
  1489)    108379.0  Rx         065A  8  2F 59 25 01 00 00 00 00 
  1490)    108381.2  Rx         028F  4  00 00 00 00 
  1491)    108388.0  Rx         05DA  8  60 59 25 01 00 00 00 00 
  1492)    108389.0  Rx         065A  8  2F 59 25 01 00 00 00 00 
  1493)    108395.4  Rx         010A  8  23 75 A0 04 99 8C 00 00 
  1494)    108398.1  Rx         05DA  8  60 59 25 01 00 00 00 00 
  1495)    108399.0  Rx         065A  8  2F 59 25 01 00 00 00 00 
  1496)    108408.0  Rx         05DA  8  60 59 25 01 00 00 00 00 
  1497)    108409.0  Rx         065A  8  2F 59 25 01 00 00 00 00 
  1498)    108418.0  Rx         05DA  8  60 59 25 01 00 00 00 00 
  1499)    108419.0  Rx         065A  8  2F 59 25 01 00 00 00 00 
  1500)    108420.1  Rx         060F  8  40 13 20 01 00 00 00 00 
  1501)    108428.0  Rx         05DA  8  60 59 25 01 00 00 00 00 
  1502)    108429.0  Rx         065A  8  2F 59 25 01 00 00 00 00 
  1503)    108438.0  Rx         05DA  8  60 59 25 01 00 00 00 00 
  1504)    108439.0  Rx         065A  8  2F 59 25 01 00 00 00 00 
  1505)    108446.0  Rx         010A  8  D3 3A A1 04 99 8C 00 00 
  1506)    108448.0  Rx         05DA  8  60 59 25 01 00 00 00 00 
  1507)    108449.0  Rx         065A  8  2F 59 25 01 80 00 00 00 
  1508)    108458.0  Rx         05DA  8  60 59 25 01 00 00 00 00 
  1509)    108459.0  Rx         065A  8  2F 59 25 02 00 00 00 00 
  1510)    108468.1  Rx         05DA  8  60 59 25 02 00 00 00 00 
  1511)    108496.6  Rx         010A  8  79 00 A2 04 99 8C 00 00 
  1512)    108499.9  Rx         0100  8  A1 2F 01 00 00 00 00 00 
  1513)    108518.8  Rx         0701  1  05 
  1514)    108529.6  Rx         058F  8  4F 13 20 01 03 00 00 00 
  1515)    108530.6  Rx         060F  8  40 13 20 02 00 00 00 00 
  1516)    108547.0  Rx         010A  8  20 C5 A2 04 99 8C 00 00 
  1517)    108597.5  Rx         010A  8  A1 8A A3 04 99 8C 00 00 
  1518)    108647.9  Rx         010A  8  C1 4F A4 04 99 8C 00 00 
  1519)    108649.6  Rx         058F  8  4F 13 20 02 00 00 00 00 
  1520)    108650.7  Rx         060F  8  40 13 20 03 00 00 00 00 
  1521)    108698.4  Rx         010A  8  BF 14 A5 04 99 8C 00 00 
  1522)    108701.6  Rx         058F  8  4F 13 20 03 00 00 00 00 
  1523)    108702.7  Rx         060F  8  40 13 20 04 00 00 00 00 
  1524)    108705.1  Rx         0000  2  81 22 
  1525)    108748.9  Rx         010A  8  FD D9 A5 04 99 8C 00 00 
  1526)    108749.8  Rx         058F  8  4F 13 20 04 00 00 00 00 
  1527)    108751.0  Rx         060F  8  40 13 20 05 00 00 00 00 
  1528)    108799.3  Rx         010A  8  DF 9E A6 04 99 8C 00 00 
  1529)    108801.6  Rx         058F  8  4F 13 20 05 00 00 00 00 
  1530)    108802.6  Rx         060F  8  40 13 20 06 00 00 00 00 
  1531)    108849.6  Rx         058F  8  4F 13 20 06 00 00 00 00 
  1532)    108850.5  Rx         010A  8  10 65 A7 04 99 8C 00 00 
  1533)    108851.5  Rx         060F  8  40 13 20 07 00 00 00 00 
  1534)    108900.4  Rx         010A  8  05 2A A8 04 99 8C 00 00 
  1535)    108909.6  Rx         058F  8  4F 13 20 07 00 00 00 00 
  1536)    108910.6  Rx         060F  8  40 13 20 08 00 00 00 00 
  1537)    108949.6  Rx         058F  8  4F 13 20 08 00 00 00 00 
  1538)    108950.7  Rx         060F  8  40 13 20 09 00 00 00 00 
  1539)    108951.6  Rx         010A  8  36 EE A8 04 99 8C 00 00 
  1540)    108989.6  Rx         058F  8  4F 13 20 09 00 00 00 00 
  1541)    108990.6  Rx         060F  8  40 13 20 0A 00 00 00 00 
  1542)    109001.2  Rx         010A  8  97 B3 A9 04 99 8C 00 00 
  1543)    109029.6  Rx         058F  8  4F 13 20 0A 00 00 00 00 
  1544)    109030.6  Rx         060F  8  40 13 20 0B 00 00 00 00 
  1545)    109037.4  Rx         075A  1  7F 
  1546)    109051.6  Rx         010A  8  A8 78 AA 04 99 8C 00 00 
  1547)    109061.3  Rx         065A  8  23 20 26 03 00 06 08 02 
  1548)    109068.0  Rx         05DA  8  60 20 26 03 00 00 00 00 
  1549)    109069.6  Rx         058F  8  4F 13 20 0B 00 00 00 00 
  1550)    109070.6  Rx         060F  8  40 13 20 0C 00 00 00 00 
  1551)    109102.2  Rx         010A  8  2C 3E AB 04 99 8C 00 00 
  1552)    109106.0  Rx         0000  2  81 23 
  1553)    109129.6  Rx         058F  8  4F 13 20 0C 00 00 00 00 
  1554)    109130.6  Rx         060F  8  40 13 20 0D 00 00 00 00 
  1555)    109152.7  Rx         010A  8  79 03 AC 04 99 8C 00 00 
  1556)    109169.5  Rx         058F  8  4F 13 20 0D 00 00 00 00 
  1557)    109170.7  Rx         060F  8  40 13 20 0E 00 00 00 00 
  1558)    109203.0  Rx         010A  8  26 C8 AC 04 99 8C 00 00 
  1559)    109209.6  Rx         058F  8  4F 13 20 0E 00 00 00 00 
