;$FILEVERSION=1.1
;$STARTTIME=44656.5426624884
;
;   D:\build\CanOpen\beta2022_04_05_Hochlauf.trc
;
;   Start time: 05.04.2022 13:01:26.039.0
;   Generated by PCAN-View v4.2.3.559
;
;   Message Number
;   |         Time Offset (ms)
;   |         |        Type
;   |         |        |        ID (hex)
;   |         |        |        |     Data Length
;   |         |        |        |     |   Data Bytes (hex) ...
;   |         |        |        |     |   |
;---+--   ----+----  --+--  ----+---  +  -+ -- -- -- -- -- -- --
     1)        34.5  Rx         0701  1  05 
     2)        72.1  Rx         010A  8  AB 02 22 0E 99 8C 00 00 
     3)       121.9  Rx         010A  8  06 C5 22 0E 99 8C 00 00 
     4)       172.3  Rx         010A  8  C2 89 23 0E 99 8C 00 00 
     5)       222.7  Rx         010A  8  CE 4E 24 0E 99 8C 00 00 
     6)       234.7  Rx         070A  1  RTR
     7)       236.3  Rx         070A  1  85 
     8)       272.9  Rx         010A  8  E4 12 25 0E 99 8C 00 00 
     9)       299.4  Rx         018F  8  00 00 00 F2 D8 86 00 00 
    10)       307.4  Rx         028F  8  00 00 70 08 00 38 00 00 
    11)       318.8  Rx         038F  2  01 00 
    12)       323.5  Rx         010A  8  96 D8 25 0E 99 8C 00 00 
    13)       374.2  Rx         010A  8  6C 9E 26 0E 99 8C 00 00 
    14)       424.0  Rx         010A  8  F0 60 27 0E 99 8C 00 00 
    15)       474.7  Rx         010A  8  00 27 28 0E 99 8C 00 00 
    16)       525.3  Rx         010A  8  F6 EC 28 0E 99 8C 00 00 
    17)       576.0  Rx         010A  8  F8 B2 29 0E 99 8C 00 00 
    18)       626.6  Rx         010A  8  76 78 2A 0E 99 8C 00 00 
    19)       677.3  Rx         010A  8  90 3E 2B 0E 99 8C 00 00 
    20)       728.0  Rx         010A  8  B3 04 2C 0E 99 8C 00 00 
    21)       778.2  Rx         010A  8  CE C8 2C 0E 99 8C 00 00 
    22)       816.3  Rx         0100  8  1E A1 03 00 00 00 00 00 
    23)       828.8  Rx         010A  8  91 8E 2D 0E 99 8C 00 00 
    24)       838.7  Rx         070F  1  05 
    25)       878.6  Rx         010A  8  02 51 2E 0E 99 8C 00 00 
    26)       929.3  Rx         010A  8  04 17 2F 0E 99 8C 00 00 
    27)       979.5  Rx         010A  8  FC DA 2F 0E 99 8C 00 00 
    28)      1030.2  Rx         010A  8  0B A1 30 0E 99 8C 00 00 
    29)      1036.0  Rx         0701  1  05 
    30)      1080.5  Rx         010A  8  B7 65 31 0E 99 8C 00 00 
    31)      1130.9  Rx         010A  8  93 2A 32 0E 99 8C 00 00 
    32)      1181.6  Rx         010A  8  7B F0 32 0E 99 8C 00 00 
    33)      1231.4  Rx         010A  8  51 B3 33 0E 99 8C 00 00 
    34)      1246.2  Rx         071E  1  05 
    35)      1282.2  Rx         010A  8  95 79 34 0E 99 8C 00 00 
    36)      1299.3  Rx         018F  8  00 00 00 F2 D8 85 00 00 
    37)      1306.8  Rx         038F  2  01 00 
    38)      1319.3  Rx         028F  8  00 00 70 08 00 38 00 00 
    39)      1333.1  Rx         010A  8  5C 40 35 0E 99 8C 00 00 
    40)      1383.0  Rx         010A  8  34 03 36 0E 99 8C 00 00 
    41)      1432.9  Rx         010A  8  55 C6 36 0E 99 8C 00 00 
    42)      1436.6  Rx         070A  1  RTR
    43)      1437.8  Rx         070A  1  05 
    44)      1483.1  Rx         010A  8  37 8A 37 0E 99 8C 00 00 
    45)      1533.5  Rx         010A  8  30 4F 38 0E 99 8C 00 00 
    46)      1583.3  Rx         010A  8  AE 11 39 0E 99 8C 00 00 
    47)      1634.2  Rx         010A  8  54 D8 39 0E 99 8C 00 00 
    48)      1684.8  Rx         010A  8  07 9E 3A 0E 99 8C 00 00 
    49)      1735.0  Rx         010A  8  40 62 3B 0E 99 8C 00 00 
    50)      1784.9  Rx         010A  8  1E 25 3C 0E 99 8C 00 00 
    51)      1816.4  Rx         0100  8  06 A5 03 00 00 00 00 00 
    52)      1834.8  Rx         010A  8  27 E8 3C 0E 99 8C 00 00 
    53)      1884.9  Rx         010A  8  BE AB 3D 0E 99 8C 00 00 
    54)      1935.4  Rx         010A  8  39 71 3E 0E 99 8C 00 00 
    55)      1986.1  Rx         010A  8  09 37 3F 0E 99 8C 00 00 
    56)      2036.1  Rx         010A  8  78 FA 3F 0E 99 8C 00 00 
    57)      2037.8  Rx         0701  1  05 
    58)      2060.7  Rx         0000  2  81 20 
    59)      2085.8  Rx         010A  8  D2 BC 40 0E 99 8C 00 00 
    60)      2111.9  Rx         060A  8  40 20 26 05 00 00 00 00 
    61)      2114.8  Rx         058A  8  4B 20 26 05 03 00 00 00 
    62)      2136.3  Rx         010A  8  EB 81 41 0E 99 8C 00 00 
    63)      2187.1  Rx         010A  8  64 48 42 0E 99 8C 00 00 
    64)      2237.2  Rx         010A  8  EA 0B 43 0E 99 8C 00 00 
    65)      2238.7  Rx         070F  1  05 
    66)      2287.3  Rx         010A  8  E7 CF 43 0E 99 8C 00 00 
    67)      2299.4  Rx         018F  8  00 00 00 F2 D8 85 00 00 
    68)      2307.4  Rx         028F  8  00 00 70 08 00 38 00 00 
    69)      2318.8  Rx         038F  2  01 00 
    70)      2337.4  Rx         010A  8  53 93 44 0E 99 8C 00 00 
    71)      2387.6  Rx         010A  8  5B 57 45 0E 99 8C 00 00 
    72)      2437.9  Rx         010A  8  D6 1B 46 0E 99 8C 00 00 
    73)      2460.5  Rx         0000  2  81 21 
    74)      2487.9  Rx         010A  8  6D DF 46 0E 99 8C 00 00 
    75)      2538.5  Rx         010A  8  0D A5 47 0E 99 8C 00 00 
    76)      2588.7  Rx         010A  8  12 69 48 0E 99 8C 00 00 
    77)      2639.3  Rx         010A  8  ED 2E 49 0E 99 8C 00 00 
    78)      2639.8  Rx         070A  1  RTR
    79)      2643.9  Rx         070A  1  85 
    80)      2665.9  Rx         071E  1  05 
    81)      2689.6  Rx         010A  8  4C F3 49 0E 99 8C 00 00 
    82)      2739.4  Rx         010A  8  CC B5 4A 0E 99 8C 00 00 
    83)      2790.2  Rx         010A  8  46 7C 4B 0E 99 8C 00 00 
    84)      2817.3  Rx         0100  8  EF A8 03 00 00 00 00 00 
    85)      2840.1  Rx         010A  8  FD 3E 4C 0E 99 8C 00 00 
    86)      2860.5  Rx         0000  2  81 22 
    87)      2890.8  Rx         010A  8  4D 05 4D 0E 99 8C 00 00 
    88)      2940.9  Rx         010A  8  F0 C8 4D 0E 99 8C 00 00 
    89)      2990.9  Rx         010A  8  51 8C 4E 0E 99 8C 00 00 
    90)      3039.9  Rx         0701  1  05 
    91)      3041.5  Rx         010A  8  BF 51 4F 0E 99 8C 00 00 
    92)      3092.3  Rx         010A  8  1A 18 50 0E 99 8C 00 00 
    93)      3142.8  Rx         010A  8  67 DD 50 0E 99 8C 00 00 
    94)      3193.5  Rx         010A  8  A1 A3 51 0E 99 8C 00 00 
    95)      3243.8  Rx         010A  8  1B 68 52 0E 99 8C 00 00 
    96)      3260.3  Rx         0000  2  81 23 
    97)      3294.5  Rx         010A  8  00 2E 53 0E 99 8C 00 00 
    98)      3299.4  Rx         018F  8  00 00 00 F2 D8 84 00 00 
    99)      3306.9  Rx         038F  2  01 00 
   100)      3319.4  Rx         028F  8  00 00 70 08 00 38 00 00 
   101)      3344.3  Rx         010A  8  CA F0 53 0E 99 8C 00 00 
   102)      3394.3  Rx         010A  8  DC B3 54 0E 99 8C 00 00 
   103)      3444.7  Rx         010A  8  EC 78 55 0E 99 8C 00 00 
   104)      3495.0  Rx         010A  8  2C 3D 56 0E 99 8C 00 00 
   105)      3545.5  Rx         010A  8  A1 02 57 0E 99 8C 00 00 
   106)      3595.5  Rx         010A  8  F0 C5 57 0E 99 8C 00 00 
   107)      3638.8  Rx         070F  1  05 
   108)      3645.5  Rx         010A  8  24 89 58 0E 99 8C 00 00 
   109)      3660.5  Rx         0000  2  81 24 
   110)      3696.0  Rx         010A  8  8F 4E 59 0E 99 8C 00 00 
   111)      3746.0  Rx         010A  8  87 11 5A 0E 99 8C 00 00 
   112)      3796.7  Rx         010A  8  D6 D7 5A 0E 99 8C 00 00 
   113)      3817.6  Rx         0100  8  D7 AC 03 00 00 00 00 00 
   114)      3840.9  Rx         070A  1  RTR
   115)      3842.9  Rx         070A  1  05 
   116)      3846.6  Rx         010A  8  9A 9A 5B 0E 99 8C 00 00 
   117)      3897.2  Rx         010A  8  82 60 5C 0E 99 8C 00 00 
   118)      3947.6  Rx         010A  8  6D 25 5D 0E 99 8C 00 00 
   119)      3998.3  Rx         010A  8  19 EB 5D 0E 99 8C 00 00 
   120)      4041.0  Rx         0701  1  05 
   121)      4049.0  Rx         010A  8  7D B1 5E 0E 99 8C 00 00 
   122)      4061.1  Rx         0000  2  81 25 
   123)      4086.2  Rx         071E  1  05 
   124)      4099.8  Rx         010A  8  B5 77 5F 0E 99 8C 00 00 
   125)      4150.3  Rx         010A  8  2D 3D 60 0E 99 8C 00 00 
   126)      4201.1  Rx         010A  8  7D 03 61 0E 99 8C 00 00 
   127)      4250.9  Rx         010A  8  26 C6 61 0E 99 8C 00 00 
   128)      4299.4  Rx         018F  8  00 00 00 F2 D8 84 00 00 
   129)      4300.7  Rx         010A  8  A4 88 62 0E 99 8C 00 00 
   130)      4307.4  Rx         028F  8  00 00 70 08 00 38 00 00 
   131)      4318.8  Rx         038F  2  01 00 
   132)      4350.8  Rx         010A  8  5E 4C 63 0E 99 8C 00 00 
   133)      4401.7  Rx         010A  8  35 13 64 0E 99 8C 00 00 
   134)      4452.4  Rx         010A  8  1E D9 64 0E 99 8C 00 00 
   135)      4461.5  Rx         0000  2  81 26 
   136)      4502.9  Rx         010A  8  5C 9E 65 0E 99 8C 00 00 
   137)      4552.7  Rx         010A  8  23 61 66 0E 99 8C 00 00 
   138)      4602.7  Rx         010A  8  73 24 67 0E 99 8C 00 00 
   139)      4652.9  Rx         010A  8  2E E8 67 0E 99 8C 00 00 
   140)      4703.7  Rx         010A  8  CC AE 68 0E 99 8C 00 00 
   141)      4754.4  Rx         010A  8  D7 74 69 0E 99 8C 00 00 
   142)      4804.5  Rx         010A  8  82 38 6A 0E 99 8C 00 00 
   143)      4818.1  Rx         0100  8  BF B0 03 00 00 00 00 00 
   144)      4854.4  Rx         010A  8  6C FB 6A 0E 99 8C 00 00 
   145)      4861.4  Rx         0000  2  81 27 
   146)      4904.9  Rx         010A  8  02 C1 6B 0E 99 8C 00 00 
   147)      4955.3  Rx         010A  8  64 85 6C 0E 99 8C 00 00 
   148)      5005.1  Rx         010A  8  21 48 6D 0E 99 8C 00 00 
   149)      5038.8  Rx         070F  1  05 
   150)      5042.8  Rx         070A  1  RTR
   151)      5043.4  Rx         0701  1  05 
   152)      5045.3  Rx         070A  1  85 
   153)      5055.7  Rx         010A  8  E0 0D 6E 0E 99 8C 00 00 
   154)      5106.3  Rx         010A  8  9E D3 6E 0E 99 8C 00 00 
   155)      5156.8  Rx         010A  8  8B 98 6F 0E 99 8C 00 00 
   156)      5207.2  Rx         010A  8  AD 5D 70 0E 99 8C 00 00 
   157)      5257.2  Rx         010A  8  F5 20 71 0E 99 8C 00 00 
   158)      5262.1  Rx         0000  2  81 28 
   159)      5299.4  Rx         018F  8  00 00 00 F2 D8 84 00 00 
   160)      5306.9  Rx         038F  2  01 00 
   161)      5307.8  Rx         010A  8  BB E5 71 0E 99 8C 00 00 
   162)      5319.4  Rx         028F  8  00 00 70 08 00 38 00 00 
   163)      5357.4  Rx         010A  8  A5 A8 72 0E 99 8C 00 00 
   164)      5407.3  Rx         010A  8  3D 6B 73 0E 99 8C 00 00 
   165)      5458.0  Rx         010A  8  8E 31 74 0E 99 8C 00 00 
   166)      5508.8  Rx         010A  8  AB F7 74 0E 99 8C 00 00 
   167)      5515.7  Rx         071E  1  05 
   168)      5559.2  Rx         010A  8  B8 BC 75 0E 99 8C 00 00 
   169)      5610.1  Rx         010A  8  7F 83 76 0E 99 8C 00 00 
   170)      5656.0  Rx         060F  8  40 01 22 01 00 00 00 00 
   171)      5660.9  Rx         010A  8  E9 49 77 0E 99 8C 00 00 
   172)      5662.8  Rx         0000  2  81 29 
   173)      5699.4  Rx         058F  8  4B 01 22 01 1A 01 00 00 
   174)      5700.5  Rx         060F  8  40 00 22 01 00 00 00 00 
   175)      5711.6  Rx         010A  8  EC 0F 78 0E 99 8C 00 00 
   176)      5747.4  Rx         058F  8  4B 00 22 01 EA 00 00 00 
   177)      5761.8  Rx         010A  8  E6 D3 78 0E 99 8C 00 00 
   178)      5812.6  Rx         010A  8  85 9A 79 0E 99 8C 00 00 
   179)      5819.1  Rx         0100  8  A8 B4 03 00 00 00 00 00 
   180)      5862.5  Rx         010A  8  57 5D 7A 0E 99 8C 00 00 
   181)      5912.3  Rx         010A  8  DE 1F 7B 0E 99 8C 00 00 
   182)      5962.9  Rx         010A  8  BB E5 7B 0E 99 8C 00 00 
   183)      6013.8  Rx         010A  8  57 AC 7C 0E 99 8C 00 00 
   184)      6044.2  Rx         0701  1  05 
   185)      6063.1  Rx         0000  2  81 2A 
   186)      6064.6  Rx         010A  8  CD 72 7D 0E 99 8C 00 00 
   187)      6115.1  Rx         010A  8  55 38 7E 0E 99 8C 00 00 
   188)      6165.1  Rx         010A  8  67 FB 7E 0E 99 8C 00 00 
   189)      6215.5  Rx         010A  8  4F C0 7F 0E 99 8C 00 00 
   190)      6245.0  Rx         070A  1  RTR
   191)      6247.1  Rx         070A  1  05 
   192)      6266.3  Rx         010A  8  C0 86 80 0E 99 8C 00 00 
   193)      6299.4  Rx         018F  8  00 00 00 F2 D8 84 00 00 
   194)      6307.4  Rx         028F  8  00 00 70 08 00 38 00 00 
   195)      6317.2  Rx         010A  8  64 4D 81 0E 99 8C 00 00 
   196)      6318.9  Rx         038F  2  01 00 
   197)      6367.2  Rx         010A  8  BD 10 82 0E 99 8C 00 00 
   198)      6417.6  Rx         010A  8  E5 D5 82 0E 99 8C 00 00 
   199)      6438.8  Rx         070F  1  05 
   200)      6463.0  Rx         0000  2  81 2B 
   201)      6467.7  Rx         010A  8  93 99 83 0E 99 8C 00 00 
   202)      6518.0  Rx         010A  8  F3 5D 84 0E 99 8C 00 00 
   203)      6568.8  Rx         010A  8  5D 24 85 0E 99 8C 00 00 
   204)      6619.4  Rx         010A  8  60 EA 85 0E 99 8C 00 00 
   205)      6669.5  Rx         010A  8  CC AD 86 0E 99 8C 00 00 
   206)      6720.2  Rx         010A  8  D5 73 87 0E 99 8C 00 00 
   207)      6770.9  Rx         010A  8  D9 39 88 0E 99 8C 00 00 
   208)      6819.5  Rx         0100  8  91 B8 03 00 00 00 00 00 
   209)      6821.6  Rx         010A  8  0F 00 89 0E 99 8C 00 00 
   210)      6863.5  Rx         0000  2  81 2C 
   211)      6872.1  Rx         010A  8  4A C5 89 0E 99 8C 00 00 
   212)      6922.3  Rx         010A  8  74 89 8A 0E 99 8C 00 00 
   213)      6945.5  Rx         071E  1  05 
   214)      6972.8  Rx         010A  8  D2 4E 8B 0E 99 8C 00 00 
   215)      7022.7  Rx         010A  8  9D 11 8C 0E 99 8C 00 00 
   216)      7045.9  Rx         0701  1  05 
   217)      7073.0  Rx         010A  8  29 D6 8C 0E 99 8C 00 00 
   218)      7123.8  Rx         010A  8  81 9C 8D 0E 99 8C 00 00 
   219)      7174.4  Rx         010A  8  3F 62 8E 0E 99 8C 00 00 
   220)      7224.7  Rx         010A  8  8D 26 8F 0E 99 8C 00 00 
   221)      7263.6  Rx         0000  2  81 2D 
   222)      7275.4  Rx         010A  8  A3 EC 8F 0E 99 8C 00 00 
   223)      7299.4  Rx         018F  8  00 00 00 F2 D8 83 00 00 
   224)      7306.9  Rx         038F  2  01 00 
   225)      7319.4  Rx         028F  8  00 00 70 08 00 38 00 00 
   226)      7325.9  Rx         010A  8  CA B1 90 0E 99 8C 00 00 
   227)      7376.5  Rx         010A  8  C5 77 91 0E 99 8C 00 00 
   228)      7426.8  Rx         010A  8  66 3C 92 0E 99 8C 00 00 
   229)      7446.2  Rx         070A  1  RTR
   230)      7448.4  Rx         070A  1  85 
   231)      7476.6  Rx         010A  8  C1 FE 92 0E 99 8C 00 00 
   232)      7527.4  Rx         010A  8  07 C5 93 0E 99 8C 00 00 
   233)      7577.1  Rx         010A  8  95 87 94 0E 99 8C 00 00 
   234)      7627.9  Rx         010A  8  A2 4D 95 0E 99 8C 00 00 
   235)      7664.0  Rx         0000  2  81 2E 
   236)      7677.7  Rx         010A  8  1F 10 96 0E 99 8C 00 00 
   237)      7728.0  Rx         010A  8  CA D4 96 0E 99 8C 00 00 
   238)      7778.5  Rx         010A  8  F4 99 97 0E 99 8C 00 00 
   239)      7820.3  Rx         0100  8  7A BC 03 00 00 00 00 00 
   240)      7828.6  Rx         010A  8  A8 5D 98 0E 99 8C 00 00 
   241)      7838.8  Rx         070F  1  05 
   242)      7879.0  Rx         010A  8  BA 22 99 0E 99 8C 00 00 
   243)      7929.5  Rx         010A  8  9A E7 99 0E 99 8C 00 00 
   244)      7979.5  Rx         010A  8  EB AA 9A 0E 99 8C 00 00 
   245)      8030.1  Rx         010A  8  E5 70 9B 0E 99 8C 00 00 
   246)      8047.4  Rx         0701  1  05 
   247)      8064.9  Rx         0000  2  81 2F 
   248)      8081.0  Rx         010A  8  78 37 9C 0E 99 8C 00 00 
   249)      8131.3  Rx         010A  8  D6 FB 9C 0E 99 8C 00 00 
   250)      8181.9  Rx         010A  8  B5 C1 9D 0E 99 8C 00 00 
   251)      8231.8  Rx         010A  8  9D 84 9E 0E 99 8C 00 00 
   252)      8282.5  Rx         010A  8  B7 4A 9F 0E 99 8C 00 00 
   253)      8299.4  Rx         018F  8  00 00 00 F2 D8 83 00 00 
   254)      8307.5  Rx         028F  8  00 00 7A 08 00 38 00 00 
   255)      8318.9  Rx         038F  2  01 00 
   256)      8332.4  Rx         010A  8  92 0D A0 0E 99 8C 00 00 
   257)      8366.1  Rx         071E  1  05 
   258)      8383.2  Rx         010A  8  05 D4 A0 0E 99 8C 00 00 
   259)      8433.8  Rx         010A  8  DD 99 A1 0E 99 8C 00 00 
   260)      8466.0  Rx         07EA  3  06 00 7F 
   261)      8484.2  Rx         010A  8  8F 5E A2 0E 99 8C 00 00 
   262)      8534.5  Rx         010A  8  1B 23 A3 0E 99 8C 00 00 
   263)      8584.9  Rx         010A  8  4E E8 A3 0E 99 8C 00 00 
   264)      8634.9  Rx         010A  8  36 AB A4 0E 99 8C 00 00 
   265)      8648.9  Rx         070A  1  RTR
   266)      8649.8  Rx         070A  1  05 
   267)      8685.3  Rx         010A  8  54 70 A5 0E 99 8C 00 00 
   268)      8735.5  Rx         010A  8  41 34 A6 0E 99 8C 00 00 
   269)      8786.1  Rx         010A  8  E7 F9 A6 0E 99 8C 00 00 
   270)      8820.8  Rx         0100  8  62 C0 03 00 00 00 00 00 
   271)      8835.9  Rx         010A  8  9A BC A7 0E 99 8C 00 00 
   272)      8885.8  Rx         010A  8  86 7F A8 0E 99 8C 00 00 
   273)      8936.2  Rx         010A  8  3B 44 A9 0E 99 8C 00 00 
   274)      8986.8  Rx         010A  8  0B 0A AA 0E 99 8C 00 00 
   275)      9036.6  Rx         010A  8  79 CC AA 0E 99 8C 00 00 
   276)      9049.9  Rx         0701  1  05 
   277)      9087.3  Rx         010A  8  7D 92 AB 0E 99 8C 00 00 
   278)      9137.6  Rx         010A  8  38 57 AC 0E 99 8C 00 00 
   279)      9188.4  Rx         010A  8  68 1D AD 0E 99 8C 00 00 
   280)      9238.5  Rx         010A  8  55 E1 AD 0E 99 8C 00 00 
   281)      9239.0  Rx         070F  1  05 
   282)      9288.5  Rx         010A  8  81 A4 AE 0E 99 8C 00 00 
   283)      9299.4  Rx         018F  8  00 00 00 F2 D8 83 00 00 
   284)      9306.9  Rx         038F  2  01 00 
   285)      9319.5  Rx         028F  8  00 00 7A 08 00 38 00 00 
   286)      9338.5  Rx         010A  8  D9 67 AF 0E 99 8C 00 00 
   287)      9389.1  Rx         010A  8  88 2D B0 0E 99 8C 00 00 
   288)      9439.5  Rx         010A  8  4B F2 B0 0E 99 8C 00 00 
   289)      9489.3  Rx         010A  8  BD B4 B1 0E 99 8C 00 00 
   290)      9540.1  Rx         010A  8  4B 7B B2 0E 99 8C 00 00 
   291)      9590.9  Rx         010A  8  8F 41 B3 0E 99 8C 00 00 
   292)      9641.2  Rx         010A  8  F8 05 B4 0E 99 8C 00 00 
   293)      9691.1  Rx         010A  8  37 C9 B4 0E 99 8C 00 00 
   294)      9741.7  Rx         010A  8  D4 8E B5 0E 99 8C 00 00 
   295)      9785.5  Rx         071E  1  05 
   296)      9791.9  Rx         010A  8  B1 52 B6 0E 99 8C 00 00 
   297)      9821.1  Rx         0100  8  4A C4 03 00 00 00 00 00 
   298)      9841.8  Rx         010A  8  9F 15 B7 0E 99 8C 00 00 
   299)      9851.8  Rx         070A  1  RTR
   300)      9853.1  Rx         070A  1  85 
   301)      9892.6  Rx         010A  8  0D DC B7 0E 99 8C 00 00 
   302)      9942.8  Rx         010A  8  1F A0 B8 0E 99 8C 00 00 
   303)      9992.7  Rx         010A  8  73 63 B9 0E 99 8C 00 00 
   304)     10043.3  Rx         010A  8  B1 28 BA 0E 99 8C 00 00 
   305)     10052.3  Rx         0701  1  05 
   306)     10093.7  Rx         010A  8  CE ED BA 0E 99 8C 00 00 
   307)     10144.2  Rx         010A  8  F5 B2 BB 0E 99 8C 00 00 
   308)     10194.8  Rx         010A  8  E4 78 BC 0E 99 8C 00 00 
   309)     10245.4  Rx         010A  8  A1 3E BD 0E 99 8C 00 00 
   310)     10296.3  Rx         010A  8  18 05 BE 0E 99 8C 00 00 
   311)     10299.5  Rx         018F  8  00 00 00 F2 D8 83 00 00 
   312)     10307.5  Rx         028F  8  00 00 7A 08 00 38 00 00 
   313)     10318.9  Rx         038F  2  01 00 
   314)     10346.9  Rx         010A  8  E4 CA BE 0E 99 8C 00 00 
   315)     10396.7  Rx         010A  8  64 8D BF 0E 99 8C 00 00 
   316)     10447.5  Rx         010A  8  D2 53 C0 0E 99 8C 00 00 
   317)     10498.3  Rx         010A  8  45 1A C1 0E 99 8C 00 00 
   318)     10548.9  Rx         010A  8  FE DF C1 0E 99 8C 00 00 
   319)     10599.2  Rx         010A  8  89 A4 C2 0E 99 8C 00 00 
   320)     10638.8  Rx         070F  1  05 
   321)     10650.2  Rx         010A  8  B9 6B C3 0E 99 8C 00 00 
   322)     10700.6  Rx         010A  8  A7 30 C4 0E 99 8C 00 00 
   323)     10751.3  Rx         010A  8  88 F6 C4 0E 99 8C 00 00 
   324)     10802.0  Rx         010A  8  C9 BC C5 0E 99 8C 00 00 
   325)     10821.5  Rx         0100  8  33 C8 03 00 00 00 00 00 
   326)     10852.1  Rx         010A  8  29 80 C6 0E 99 8C 00 00 
   327)     10902.2  Rx         010A  8  F5 43 C7 0E 99 8C 00 00 
   328)     10952.7  Rx         010A  8  58 09 C8 0E 99 8C 00 00 
   329)     11002.7  Rx         010A  8  92 CC C8 0E 99 8C 00 00 
   330)     11053.1  Rx         010A  8  5F 91 C9 0E 99 8C 00 00 
   331)     11053.7  Rx         070A  1  RTR
   332)     11054.2  Rx         0701  1  05 
   333)     11057.6  Rx         070A  1  05 
   334)     11103.4  Rx         010A  8  C5 55 CA 0E 99 8C 00 00 
   335)     11154.1  Rx         010A  8  27 1C CB 0E 99 8C 00 00 
   336)     11205.1  Rx         010A  8  28 E3 CB 0E 99 8C 00 00 
   337)     11206.1  Rx         071E  1  05 
   338)     11255.9  Rx         010A  8  AD A9 CC 0E 99 8C 00 00 
   339)     11299.4  Rx         018F  8  00 00 00 F2 D8 82 00 00 
   340)     11306.5  Rx         010A  8  5C 6F CD 0E 99 8C 00 00 
   341)     11307.0  Rx         038F  2  01 00 
   342)     11319.5  Rx         028F  8  00 00 7A 08 00 38 00 00 
   343)     11357.3  Rx         010A  8  BC 35 CE 0E 99 8C 00 00 
   344)     11407.7  Rx         010A  8  A6 FA CE 0E 99 8C 00 00 
   345)     11457.5  Rx         010A  8  3F BD CF 0E 99 8C 00 00 
   346)     11466.8  Rx         0000  2  81 30 
   347)     11507.4  Rx         010A  8  35 80 D0 0E 99 8C 00 00 
   348)     11557.6  Rx         010A  8  0C 44 D1 0E 99 8C 00 00 
   349)     11607.4  Rx         010A  8  D2 06 D2 0E 99 8C 00 00 
   350)     11657.2  Rx         010A  8  57 C9 D2 0E 99 8C 00 00 
   351)     11707.5  Rx         010A  8  C4 8D D3 0E 99 8C 00 00 
   352)     11758.0  Rx         010A  8  DC 52 D4 0E 99 8C 00 00 
   353)     11808.3  Rx         010A  8  95 17 D5 0E 99 8C 00 00 
   354)     11822.1  Rx         0100  8  1B CC 03 00 00 00 00 00 
   355)     11858.7  Rx         010A  8  76 DC D5 0E 99 8C 00 00 
   356)     11866.7  Rx         0000  2  81 31 
   357)     11909.0  Rx         010A  8  DF A0 D6 0E 99 8C 00 00 
   358)     11958.8  Rx         010A  8  5B 63 D7 0E 99 8C 00 00 
   359)     12008.7  Rx         010A  8  3C 26 D8 0E 99 8C 00 00 
   360)     12038.8  Rx         070F  1  05 
   361)     12056.6  Rx         0701  1  05 
   362)     12059.2  Rx         010A  8  A2 EB D8 0E 99 8C 00 00 
   363)     12109.5  Rx         010A  8  F3 AF D9 0E 99 8C 00 00 
   364)     12160.0  Rx         010A  8  1B 75 DA 0E 99 8C 00 00 
   365)     12169.9  Rx         060A  8  40 20 26 05 00 00 00 00 
   366)     12173.1  Rx         058A  8  4B 20 26 05 03 00 00 00 
   367)     12209.8  Rx         010A  8  CB 37 DB 0E 99 8C 00 00 
   368)     12257.0  Rx         070A  1  RTR
   369)     12258.5  Rx         070A  1  85 
   370)     12259.8  Rx         010A  8  02 FB DB 0E 99 8C 00 00 
   371)     12266.8  Rx         0000  2  81 32 
   372)     12299.5  Rx         018F  8  00 00 00 F2 D8 82 00 00 
   373)     12307.5  Rx         028F  8  00 00 7A 08 00 38 00 00 
   374)     12310.4  Rx         010A  8  85 C0 DC 0E 99 8C 00 00 
   375)     12318.9  Rx         038F  2  01 00 
   376)     12360.1  Rx         010A  8  16 83 DD 0E 99 8C 00 00 
   377)     12411.0  Rx         010A  8  CB 49 DE 0E 99 8C 00 00 
   378)     12461.4  Rx         010A  8  84 0E DF 0E 99 8C 00 00 
   379)     12511.3  Rx         010A  8  CF D1 DF 0E 99 8C 00 00 
   380)     12561.8  Rx         010A  8  E3 96 E0 0E 99 8C 00 00 
   381)     12612.1  Rx         010A  8  57 5B E1 0E 99 8C 00 00 
   382)     12625.6  Rx         071E  1  05 
   383)     12662.8  Rx         010A  8  7B 21 E2 0E 99 8C 00 00 
   384)     12667.6  Rx         0000  2  81 33 
   385)     12713.3  Rx         010A  8  7B E6 E2 0E 99 8C 00 00 
   386)     12763.4  Rx         010A  8  A9 AA E3 0E 99 8C 00 00 
   387)     12813.8  Rx         010A  8  74 6F E4 0E 99 8C 00 00 
   388)     12822.6  Rx         0100  8  04 D0 03 00 00 00 00 00 
   389)     12863.7  Rx         010A  8  2E 32 E5 0E 99 8C 00 00 
   390)     12914.4  Rx         010A  8  2D F8 E5 0E 99 8C 00 00 
   391)     12964.9  Rx         010A  8  8A BD E6 0E 99 8C 00 00 
   392)     13015.5  Rx         010A  8  DD 82 E7 0E 99 8C 00 00 
   393)     13058.6  Rx         0701  1  05 
   394)     13065.7  Rx         010A  8  FF 46 E8 0E 99 8C 00 00 
   395)     13068.4  Rx         0000  2  81 34 
   396)     13115.8  Rx         010A  8  EC 0A E9 0E 99 8C 00 00 
   397)     13166.7  Rx         010A  8  D3 D1 E9 0E 99 8C 00 00 
   398)     13216.8  Rx         010A  8  88 95 EA 0E 99 8C 00 00 
   399)     13266.7  Rx         010A  8  9D 58 EB 0E 99 8C 00 00 
   400)     13299.5  Rx         018F  8  00 00 00 F2 D8 82 00 00 
   401)     13306.9  Rx         038F  2  01 00 
   402)     13317.2  Rx         010A  8  D3 1D EC 0E 99 8C 00 00 
   403)     13319.5  Rx         028F  8  00 00 7A 08 00 38 00 00 
   404)     13368.0  Rx         010A  8  2D E4 EC 0E 99 8C 00 00 
   405)     13418.3  Rx         010A  8  87 A8 ED 0E 99 8C 00 00 
   406)     13438.8  Rx         070F  1  05 
   407)     13458.9  Rx         070A  1  RTR
   408)     13460.0  Rx         070A  1  05 
   409)     13469.0  Rx         010A  8  7C 6E EE 0E 99 8C 00 00 
   410)     13469.5  Rx         0000  2  81 35 
   411)     13519.3  Rx         010A  8  15 33 EF 0E 99 8C 00 00 
   412)     13569.8  Rx         010A  8  87 F8 EF 0E 99 8C 00 00 
   413)     13619.7  Rx         010A  8  88 BB F0 0E 99 8C 00 00 
   414)     13670.5  Rx         010A  8  9F 81 F1 0E 99 8C 00 00 
   415)     13720.6  Rx         010A  8  59 45 F2 0E 99 8C 00 00 
   416)     13771.1  Rx         010A  8  A9 0A F3 0E 99 8C 00 00 
   417)     13821.7  Rx         010A  8  77 D0 F3 0E 99 8C 00 00 
   418)     13822.9  Rx         0100  8  EC D3 03 00 00 00 00 00 
   419)     13869.5  Rx         0000  2  81 36 
   420)     13872.1  Rx         010A  8  6B 95 F4 0E 99 8C 00 00 
   421)     13922.6  Rx         010A  8  7A 5A F5 0E 99 8C 00 00 
   422)     13972.7  Rx         010A  8  14 1E F6 0E 99 8C 00 00 
   423)     14022.8  Rx         010A  8  EE E1 F6 0E 99 8C 00 00 
   424)     14046.2  Rx         071E  1  05 
   425)     14060.4  Rx         0701  1  05 
   426)     14073.4  Rx         010A  8  A5 A7 F7 0E 99 8C 00 00 
   427)     14124.2  Rx         010A  8  26 6E F8 0E 99 8C 00 00 
   428)     14174.4  Rx         010A  8  15 32 F9 0E 99 8C 00 00 
   429)     14224.5  Rx         010A  8  EA F5 F9 0E 99 8C 00 00 
   430)     14269.4  Rx         0000  2  81 37 
   431)     14275.0  Rx         010A  8  F2 BA FA 0E 99 8C 00 00 
   432)     14299.5  Rx         018F  8  00 00 00 F2 D8 82 00 00 
   433)     14307.5  Rx         028F  8  00 00 7A 08 00 38 00 00 
   434)     14319.0  Rx         038F  2  01 00 
   435)     14325.7  Rx         010A  8  05 81 FB 0E 99 8C 00 00 
   436)     14376.4  Rx         010A  8  0E 47 FC 0E 99 8C 00 00 
   437)     14426.3  Rx         010A  8  0E 0A FD 0E 99 8C 00 00 
   438)     14477.0  Rx         010A  8  FE CF FD 0E 99 8C 00 00 
   439)     14527.3  Rx         010A  8  C7 94 FE 0E 99 8C 00 00 
   440)     14578.0  Rx         010A  8  72 5A FF 0E 99 8C 00 00 
   441)     14628.1  Rx         010A  8  7F 1E 00 0F 99 8C 00 00 
   442)     14661.0  Rx         070A  1  RTR
   443)     14664.0  Rx         070A  1  85 
   444)     14669.7  Rx         0000  2  81 38 
   445)     14678.5  Rx         010A  8  2A E3 00 0F 99 8C 00 00 
   446)     14729.0  Rx         010A  8  3E A8 01 0F 99 8C 00 00 
   447)     14779.7  Rx         010A  8  60 6E 02 0F 99 8C 00 00 
   448)     14823.1  Rx         0100  8  D4 D7 03 00 00 00 00 00 
   449)     14829.6  Rx         010A  8  5D 31 03 0F 99 8C 00 00 
   450)     14838.9  Rx         070F  1  05 
   451)     14879.5  Rx         010A  8  55 F4 03 0F 99 8C 00 00 
   452)     14929.3  Rx         010A  8  EA B6 04 0F 99 8C 00 00 
   453)     14979.4  Rx         010A  8  A9 7A 05 0F 99 8C 00 00 
   454)     15029.9  Rx         010A  8  DC 3F 06 0F 99 8C 00 00 
   455)     15061.6  Rx         0701  1  05 
   456)     15070.5  Rx         0000  2  81 39 
   457)     15080.2  Rx         010A  8  46 04 07 0F 99 8C 00 00 
   458)     15130.6  Rx         010A  8  34 C9 07 0F 99 8C 00 00 
   459)     15180.7  Rx         010A  8  EF 8C 08 0F 99 8C 00 00 
   460)     15231.0  Rx         010A  8  85 51 09 0F 99 8C 00 00 
   461)     15280.9  Rx         010A  8  67 14 0A 0F 99 8C 00 00 
   462)     15299.5  Rx         018F  8  00 00 00 F2 D8 81 00 00 
   463)     15307.0  Rx         038F  2  01 00 
   464)     15319.5  Rx         028F  8  00 00 7A 08 00 38 00 00 
   465)     15331.1  Rx         010A  8  77 D8 0A 0F 99 8C 00 00 
   466)     15381.2  Rx         010A  8  4D 9C 0B 0F 99 8C 00 00 
   467)     15431.1  Rx         010A  8  E4 5E 0C 0F 99 8C 00 00 
   468)     15466.0  Rx         071E  1  05 
   469)     15470.4  Rx         0000  2  81 3A 
   470)     15481.1  Rx         010A  8  4A 22 0D 0F 99 8C 00 00 
   471)     15531.4  Rx         010A  8  EC E6 0D 0F 99 8C 00 00 
   472)     15581.8  Rx         010A  8  D2 AB 0E 0F 99 8C 00 00 
   473)     15632.1  Rx         010A  8  6E 70 0F 0F 99 8C 00 00 
   474)     15682.1  Rx         010A  8  7D 33 10 0F 99 8C 00 00 
   475)     15732.2  Rx         010A  8  5B F7 10 0F 99 8C 00 00 
   476)     15782.7  Rx         010A  8  D6 BC 11 0F 99 8C 00 00 
   477)     15823.5  Rx         0100  8  BD DB 03 00 00 00 00 00 
   478)     15832.9  Rx         010A  8  88 80 12 0F 99 8C 00 00 
   479)     15863.5  Rx         070A  1  RTR
   480)     15865.9  Rx         070A  1  05 
   481)     15870.4  Rx         0000  2  81 3B 
   482)     15883.3  Rx         010A  8  A7 45 13 0F 99 8C 00 00 
   483)     15933.8  Rx         010A  8  AE 0A 14 0F 99 8C 00 00 
   484)     15983.9  Rx         010A  8  5F CE 14 0F 99 8C 00 00 
   485)     16033.9  Rx         010A  8  DD 91 15 0F 99 8C 00 00 
   486)     16064.4  Rx         0701  1  05 
   487)     16084.4  Rx         010A  8  29 57 16 0F 99 8C 00 00 
   488)     16134.8  Rx         010A  8  DF 1B 17 0F 99 8C 00 00 
   489)     16185.3  Rx         010A  8  2F E1 17 0F 99 8C 00 00 
   490)     16235.5  Rx         010A  8  42 A5 18 0F 99 8C 00 00 
   491)     16238.9  Rx         070F  1  05 
   492)     16271.1  Rx         0000  2  81 3C 
   493)     16286.3  Rx         010A  8  AB 6B 19 0F 99 8C 00 00 
   494)     16299.5  Rx         018F  8  00 00 00 F2 D8 81 00 00 
   495)     16307.5  Rx         028F  8  00 00 7A 08 00 38 00 00 
   496)     16319.0  Rx         038F  2  01 00 
   497)     16337.1  Rx         010A  8  08 32 1A 0F 99 8C 00 00 
   498)     16387.6  Rx         010A  8  7B F7 1A 0F 99 8C 00 00 
   499)     16437.7  Rx         010A  8  06 BB 1B 0F 99 8C 00 00 
   500)     16487.5  Rx         010A  8  96 7D 1C 0F 99 8C 00 00 
   501)     16537.7  Rx         010A  8  B5 41 1D 0F 99 8C 00 00 
   502)     16587.6  Rx         010A  8  9E 04 1E 0F 99 8C 00 00 
   503)     16638.4  Rx         010A  8  2A CB 1E 0F 99 8C 00 00 
   504)     16671.6  Rx         0000  2  81 3D 
   505)     16688.5  Rx         010A  8  02 8F 1F 0F 99 8C 00 00 
   506)     16738.7  Rx         010A  8  04 53 20 0F 99 8C 00 00 
   507)     16788.9  Rx         010A  8  2D 17 21 0F 99 8C 00 00 
   508)     16823.5  Rx         0100  8  A5 DF 03 00 00 00 00 00 
   509)     16839.2  Rx         010A  8  C4 DB 21 0F 99 8C 00 00 
   510)     16886.2  Rx         071E  1  05 
   511)     16889.3  Rx         010A  8  58 9F 22 0F 99 8C 00 00 
   512)     16939.7  Rx         010A  8  64 64 23 0F 99 8C 00 00 
   513)     16990.5  Rx         010A  8  89 2A 24 0F 99 8C 00 00 
   514)     17041.4  Rx         010A  8  2F F1 24 0F 99 8C 00 00 
   515)     17066.7  Rx         070A  1  RTR
   516)     17067.3  Rx         0701  1  05 
   517)     17068.2  Rx         070A  1  85 
   518)     17072.2  Rx         0000  2  81 3E 
   519)     17091.8  Rx         010A  8  3B B6 25 0F 99 8C 00 00 
   520)     17142.2  Rx         010A  8  3F 7B 26 0F 99 8C 00 00 
   521)     17192.0  Rx         010A  8  9D 3D 27 0F 99 8C 00 00 
   522)     17242.0  Rx         010A  8  D1 00 28 0F 99 8C 00 00 
   523)     17292.0  Rx         010A  8  1C C4 28 0F 99 8C 00 00 
   524)     17299.5  Rx         018F  8  00 00 00 F2 D8 81 00 00 
   525)     17307.0  Rx         038F  2  01 00 
   526)     17319.6  Rx         028F  8  00 00 7A 08 00 38 00 00 
   527)     17342.6  Rx         010A  8  1F 8A 29 0F 99 8C 00 00 
   528)     17393.5  Rx         010A  8  E6 50 2A 0F 99 8C 00 00 
   529)     17444.0  Rx         010A  8  F1 15 2B 0F 99 8C 00 00 
   530)     17472.8  Rx         0000  2  81 3F 
   531)     17493.9  Rx         010A  8  F6 D8 2B 0F 99 8C 00 00 
   532)     17544.4  Rx         010A  8  12 9E 2C 0F 99 8C 00 00 
   533)     17595.1  Rx         010A  8  5F 64 2D 0F 99 8C 00 00 
   534)     17638.9  Rx         070F  1  05 
   535)     17645.7  Rx         010A  8  EE 29 2E 0F 99 8C 00 00 
   536)     17696.5  Rx         010A  8  2E F0 2E 0F 99 8C 00 00 
   537)     17746.5  Rx         010A  8  92 B3 2F 0F 99 8C 00 00 
   538)     17796.4  Rx         010A  8  A6 76 30 0F 99 8C 00 00 
   539)     17823.8  Rx         0100  8  8D E3 03 00 00 00 00 00 
   540)     17846.3  Rx         010A  8  7E 39 31 0F 99 8C 00 00 
   541)     17873.2  Rx         07EA  3  06 00 7F 
   542)     17896.8  Rx         010A  8  BD FE 31 0F 99 8C 00 00 
   543)     17947.5  Rx         010A  8  D8 C4 32 0F 99 8C 00 00 
   544)     17997.7  Rx         010A  8  12 89 33 0F 99 8C 00 00 
   545)     18048.5  Rx         010A  8  74 4F 34 0F 99 8C 00 00 
   546)     18068.7  Rx         0701  1  05 
   547)     18098.6  Rx         010A  8  02 13 35 0F 99 8C 00 00 
   548)     18149.2  Rx         010A  8  0D D9 35 0F 99 8C 00 00 
   549)     18199.5  Rx         010A  8  14 9D 36 0F 99 8C 00 00 
   550)     18250.0  Rx         010A  8  9B 62 37 0F 99 8C 00 00 
   551)     18269.3  Rx         070A  1  RTR
   552)     18271.6  Rx         070A  1  05 
   553)     18299.5  Rx         018F  8  00 00 00 F2 D8 80 00 00 
   554)     18300.5  Rx         010A  8  2B 27 38 0F 99 8C 00 00 
   555)     18307.6  Rx         028F  8  00 00 70 08 00 38 00 00 
   556)     18315.7  Rx         071E  1  05 
   557)     18319.0  Rx         038F  2  01 00 
   558)     18350.3  Rx         010A  8  09 EA 38 0F 99 8C 00 00 
   559)     18400.3  Rx         010A  8  BC AD 39 0F 99 8C 00 00 
   560)     18451.0  Rx         010A  8  88 73 3A 0F 99 8C 00 00 
   561)     18500.9  Rx         010A  8  B9 36 3B 0F 99 8C 00 00 
   562)     18551.5  Rx         010A  8  09 FC 3B 0F 99 8C 00 00 
   563)     18601.3  Rx         010A  8  C7 BE 3C 0F 99 8C 00 00 
   564)     18651.2  Rx         010A  8  DA 81 3D 0F 99 8C 00 00 
   565)     18701.1  Rx         010A  8  C6 44 3E 0F 99 8C 00 00 
   566)     18751.6  Rx         010A  8  13 0A 3F 0F 99 8C 00 00 
   567)     18802.4  Rx         010A  8  4E D0 3F 0F 99 8C 00 00 
   568)     18824.3  Rx         0100  8  76 E7 03 00 00 00 00 00 
   569)     18852.7  Rx         010A  8  EC 94 40 0F 99 8C 00 00 
   570)     18902.7  Rx         010A  8  17 58 41 0F 99 8C 00 00 
   571)     18953.4  Rx         010A  8  02 1E 42 0F 99 8C 00 00 
   572)     19004.0  Rx         010A  8  E0 E3 42 0F 99 8C 00 00 
   573)     19038.9  Rx         070F  1  05 
   574)     19054.3  Rx         010A  8  86 A8 43 0F 99 8C 00 00 
   575)     19071.5  Rx         0701  1  05 
   576)     19104.4  Rx         010A  8  FC 6B 44 0F 99 8C 00 00 
   577)     19154.7  Rx         010A  8  7D 30 45 0F 99 8C 00 00 
   578)     19205.6  Rx         010A  8  6B F7 45 0F 99 8C 00 00 
   579)     19256.4  Rx         010A  8  F2 BD 46 0F 99 8C 00 00 
   580)     19299.6  Rx         018F  8  00 00 00 F2 D8 80 00 00 
   581)     19307.2  Rx         010A  8  4A 84 47 0F 99 8C 00 00 
   582)     19307.8  Rx         038F  2  01 00 
   583)     19319.6  Rx         028F  8  00 00 7A 08 00 38 00 00 
   584)     19357.3  Rx         010A  8  FB 47 48 0F 99 8C 00 00 
   585)     19407.8  Rx         010A  8  40 0D 49 0F 99 8C 00 00 
   586)     19458.3  Rx         010A  8  3E D2 49 0F 99 8C 00 00 
   587)     19472.3  Rx         070A  1  RTR
   588)     19473.2  Rx         070A  1  85 
   589)     19509.0  Rx         010A  8  40 98 4A 0F 99 8C 00 00 
   590)     19559.1  Rx         010A  8  47 5C 4B 0F 99 8C 00 00 
   591)     19609.0  Rx         010A  8  12 1F 4C 0F 99 8C 00 00 
   592)     19659.8  Rx         010A  8  BD E5 4C 0F 99 8C 00 00 
   593)     19710.5  Rx         010A  8  A2 AB 4D 0F 99 8C 00 00 
   594)     19735.6  Rx         071E  1  05 
   595)     19760.3  Rx         010A  8  5A 6E 4E 0F 99 8C 00 00 
   596)     19810.5  Rx         010A  8  19 32 4F 0F 99 8C 00 00 
   597)     19825.1  Rx         0100  8  5E EB 03 00 00 00 00 00 
   598)     19860.9  Rx         010A  8  13 F7 4F 0F 99 8C 00 00 
   599)     19911.3  Rx         010A  8  F1 BB 50 0F 99 8C 00 00 
   600)     19961.8  Rx         010A  8  4D 81 51 0F 99 8C 00 00 
   601)     20012.2  Rx         010A  8  5A 46 52 0F 99 8C 00 00 
   602)     20062.2  Rx         010A  8  7E 09 53 0F 99 8C 00 00 
   603)     20073.2  Rx         0701  1  05 
   604)     20112.0  Rx         010A  8  FB CB 53 0F 99 8C 00 00 
   605)     20162.1  Rx         010A  8  96 8F 54 0F 99 8C 00 00 
   606)     20212.9  Rx         010A  8  07 56 55 0F 99 8C 00 00 
   607)     20262.7  Rx         010A  8  BB 18 56 0F 99 8C 00 00 
   608)     20299.6  Rx         018F  8  00 00 00 F2 D8 80 00 00 
   609)     20307.6  Rx         028F  8  00 00 70 08 00 38 00 00 
   610)     20312.6  Rx         010A  8  6C DB 56 0F 99 8C 00 00 
   611)     20319.1  Rx         038F  2  01 00 
   612)     20363.3  Rx         010A  8  7D A1 57 0F 99 8C 00 00 
   613)     20413.9  Rx         010A  8  5E 67 58 0F 99 8C 00 00 
   614)     20438.9  Rx         070F  1  05 
   615)     20464.2  Rx         010A  8  B0 2B 59 0F 99 8C 00 00 
   616)     20514.9  Rx         010A  8  C4 F1 59 0F 99 8C 00 00 
   617)     20565.2  Rx         010A  8  62 B6 5A 0F 99 8C 00 00 
   618)     20616.1  Rx         010A  8  16 7D 5B 0F 99 8C 00 00 
   619)     20666.8  Rx         010A  8  2E 43 5C 0F 99 8C 00 00 
   620)     20674.6  Rx         070A  1  RTR
   621)     20676.7  Rx         070A  1  05 
   622)     20693.3  Rx         060F  8  40 01 22 01 00 00 00 00 
   623)     20717.2  Rx         010A  8  34 08 5D 0F 99 8C 00 00 
   624)     20739.6  Rx         058F  8  4B 01 22 01 18 01 00 00 
   625)     20740.7  Rx         060F  8  40 00 22 01 00 00 00 00 
   626)     20767.8  Rx         010A  8  C1 CD 5D 0F 99 8C 00 00 
   627)     20787.5  Rx         058F  8  4B 00 22 01 E8 00 00 00 
   628)     20818.3  Rx         010A  8  D2 92 5E 0F 99 8C 00 00 
   629)     20825.6  Rx         0100  8  47 EF 03 00 00 00 00 00 
   630)     20869.1  Rx         010A  8  5F 59 5F 0F 99 8C 00 00 
   631)     20873.9  Rx         0000  2  81 40 
   632)     20919.8  Rx         010A  8  7E 1F 60 0F 99 8C 00 00 
   633)     20970.5  Rx         010A  8  7F E5 60 0F 99 8C 00 00 
   634)     21020.4  Rx         010A  8  5A A8 61 0F 99 8C 00 00 
   635)     21070.7  Rx         010A  8  DF 6C 62 0F 99 8C 00 00 
   636)     21075.4  Rx         0701  1  05 
   637)     21120.9  Rx         010A  8  22 31 63 0F 99 8C 00 00 
   638)     21155.6  Rx         071E  1  05 
   639)     21171.5  Rx         010A  8  DD F6 63 0F 99 8C 00 00 
   640)     21222.3  Rx         010A  8  47 BD 64 0F 99 8C 00 00 
   641)     21272.7  Rx         010A  8  F4 81 65 0F 99 8C 00 00 
   642)     21274.5  Rx         0000  2  81 41 
   643)     21299.6  Rx         018F  8  00 00 00 F2 D8 80 00 00 
   644)     21307.0  Rx         038F  2  01 00 
   645)     21319.6  Rx         028F  8  00 00 70 08 00 38 00 00 
   646)     21322.6  Rx         010A  8  0B 45 66 0F 99 8C 00 00 
   647)     21373.1  Rx         010A  8  FA 09 67 0F 99 8C 00 00 
   648)     21423.1  Rx         010A  8  8C CD 67 0F 99 8C 00 00 
   649)     21473.4  Rx         010A  8  22 92 68 0F 99 8C 00 00 
   650)     21523.5  Rx         010A  8  B3 55 69 0F 99 8C 00 00 
   651)     21574.1  Rx         010A  8  3A 1B 6A 0F 99 8C 00 00 
   652)     21624.0  Rx         010A  8  07 DE 6A 0F 99 8C 00 00 
   653)     21674.3  Rx         010A  8  9C A2 6B 0F 99 8C 00 00 
   654)     21674.9  Rx         0000  2  81 42 
   655)     21724.7  Rx         010A  8  8C 67 6C 0F 99 8C 00 00 
   656)     21774.7  Rx         010A  8  CD 2A 6D 0F 99 8C 00 00 
   657)     21825.1  Rx         010A  8  CB EF 6D 0F 99 8C 00 00 
   658)     21826.3  Rx         0100  8  30 F3 03 00 00 00 00 00 
   659)     21838.9  Rx         070F  1  05 
   660)     21875.6  Rx         010A  8  19 B5 6E 0F 99 8C 00 00 
   661)     21876.2  Rx         070A  1  RTR
   662)     21880.3  Rx         070A  1  85 
   663)     21925.9  Rx         010A  8  57 79 6F 0F 99 8C 00 00 
   664)     21976.4  Rx         010A  8  BA 3E 70 0F 99 8C 00 00 
   665)     22027.0  Rx         010A  8  74 04 71 0F 99 8C 00 00 
   666)     22075.0  Rx         0000  2  81 43 
   667)     22077.2  Rx         0701  1  05 
   668)     22078.1  Rx         010A  8  5F CA 71 0F 99 8C 00 00 
   669)     22128.0  Rx         010A  8  2D 8F 72 0F 99 8C 00 00 
   670)     22178.3  Rx         010A  8  96 53 73 0F 99 8C 00 00 
   671)     22222.8  Rx         060A  8  40 20 26 05 00 00 00 00 
   672)     22224.7  Rx         058A  8  4B 20 26 05 03 00 00 00 
   673)     22228.1  Rx         010A  8  40 16 74 0F 99 8C 00 00 
   674)     22278.9  Rx         010A  8  6E DC 74 0F 99 8C 00 00 
   675)     22299.6  Rx         018F  8  00 00 00 F2 D8 7F 00 00 
   676)     22307.6  Rx         028F  8  00 00 70 08 00 38 00 00 
   677)     22319.0  Rx         038F  2  01 00 
   678)     22329.1  Rx         010A  8  92 A0 75 0F 99 8C 00 00 
   679)     22379.9  Rx         010A  8  39 67 76 0F 99 8C 00 00 
   680)     22430.9  Rx         010A  8  07 2E 77 0F 99 8C 00 00 
   681)     22475.7  Rx         0000  2  81 44 
   682)     22480.7  Rx         010A  8  9F F0 77 0F 99 8C 00 00 
   683)     22531.2  Rx         010A  8  FA B5 78 0F 99 8C 00 00 
   684)     22575.6  Rx         071E  1  05 
   685)     22582.0  Rx         010A  8  69 7C 79 0F 99 8C 00 00 
   686)     22631.9  Rx         010A  8  39 3F 7A 0F 99 8C 00 00 
   687)     22682.7  Rx         010A  8  CD 05 7B 0F 99 8C 00 00 
   688)     22733.6  Rx         010A  8  5F CC 7B 0F 99 8C 00 00 
   689)     22783.9  Rx         010A  8  4B 91 7C 0F 99 8C 00 00 
   690)     22826.4  Rx         0100  8  18 F7 03 00 00 00 00 00 
   691)     22834.7  Rx         010A  8  8B 57 7D 0F 99 8C 00 00 
   692)     22876.1  Rx         0000  2  81 45 
   693)     22884.8  Rx         010A  8  53 1B 7E 0F 99 8C 00 00 
   694)     22935.0  Rx         010A  8  5F DF 7E 0F 99 8C 00 00 
   695)     22985.5  Rx         010A  8  A1 A4 7F 0F 99 8C 00 00 
   696)     23035.6  Rx         010A  8  4E 68 80 0F 99 8C 00 00 
   697)     23078.4  Rx         070A  1  RTR
   698)     23078.9  Rx         0701  1  05 
   699)     23080.4  Rx         070A  1  05 
   700)     23086.3  Rx         010A  8  53 2E 81 0F 99 8C 00 00 
   701)     23136.2  Rx         010A  8  42 F1 81 0F 99 8C 00 00 
   702)     23186.9  Rx         010A  8  60 B7 82 0F 99 8C 00 00 
   703)     23237.6  Rx         010A  8  6A 7D 83 0F 99 8C 00 00 
   704)     23239.0  Rx         070F  1  05 
   705)     23276.8  Rx         0000  2  81 46 
   706)     23287.6  Rx         010A  8  C1 40 84 0F 99 8C 00 00 
   707)     23299.6  Rx         018F  8  00 00 00 F2 D8 7F 00 00 
   708)     23307.0  Rx         038F  2  01 00 
   709)     23319.6  Rx         028F  8  00 00 70 08 00 38 00 00 
   710)     23338.2  Rx         010A  8  59 06 85 0F 99 8C 00 00 
   711)     23389.0  Rx         010A  8  D0 CC 85 0F 99 8C 00 00 
   712)     23439.1  Rx         010A  8  73 90 86 0F 99 8C 00 00 
   713)     23489.9  Rx         010A  8  F2 56 87 0F 99 8C 00 00 
   714)     23540.2  Rx         010A  8  64 1B 88 0F 99 8C 00 00 
   715)     23591.0  Rx         010A  8  CD E1 88 0F 99 8C 00 00 
   716)     23640.8  Rx         010A  8  95 A4 89 0F 99 8C 00 00 
   717)     23677.7  Rx         0000  2  81 47 
   718)     23691.6  Rx         010A  8  B2 6A 8A 0F 99 8C 00 00 
   719)     23742.3  Rx         010A  8  E5 30 8B 0F 99 8C 00 00 
   720)     23792.3  Rx         010A  8  73 F4 8B 0F 99 8C 00 00 
   721)     23827.1  Rx         0100  8  00 FB 03 00 00 00 00 00 
   722)     23842.6  Rx         010A  8  EC B8 8C 0F 99 8C 00 00 
   723)     23893.0  Rx         010A  8  CC 7D 8D 0F 99 8C 00 00 
   724)     23943.2  Rx         010A  8  C3 41 8E 0F 99 8C 00 00 
   725)     23993.1  Rx         010A  8  9F 04 8F 0F 99 8C 00 00 
   726)     23995.7  Rx         071E  1  05 
   727)     24043.0  Rx         010A  8  AE C7 8F 0F 99 8C 00 00 
   728)     24077.7  Rx         0000  2  81 48 
   729)     24080.9  Rx         0701  1  05 
   730)     24092.9  Rx         010A  8  C3 8A 90 0F 99 8C 00 00 
   731)     24143.4  Rx         010A  8  B9 4F 91 0F 99 8C 00 00 
   732)     24193.5  Rx         010A  8  78 13 92 0F 99 8C 00 00 
   733)     24244.1  Rx         010A  8  4C D9 92 0F 99 8C 00 00 
   734)     24280.9  Rx         070A  1  RTR
   735)     24282.3  Rx         070A  1  85 
   736)     24294.9  Rx         010A  8  81 9F 93 0F 99 8C 00 00 
   737)     24299.6  Rx         018F  8  00 00 00 F2 D8 7F 00 00 
   738)     24307.6  Rx         028F  8  00 00 70 08 00 38 00 00 
   739)     24319.1  Rx         038F  2  01 00 
   740)     24345.4  Rx         010A  8  E1 64 94 0F 99 8C 00 00 
   741)     24396.1  Rx         010A  8  FA 2A 95 0F 99 8C 00 00 
   742)     24446.7  Rx         010A  8  8C F0 95 0F 99 8C 00 00 
   743)     24477.9  Rx         0000  2  81 49 
   744)     24497.0  Rx         010A  8  05 B5 96 0F 99 8C 00 00 
   745)     24547.2  Rx         010A  8  F9 78 97 0F 99 8C 00 00 
   746)     24597.0  Rx         010A  8  98 3B 98 0F 99 8C 00 00 
   747)     24639.0  Rx         070F  1  05 
   748)     24647.5  Rx         010A  8  D2 00 99 0F 99 8C 00 00 
   749)     24698.1  Rx         010A  8  71 C6 99 0F 99 8C 00 00 
   750)     24748.6  Rx         010A  8  B9 8B 9A 0F 99 8C 00 00 
   751)     24799.4  Rx         010A  8  3D 52 9B 0F 99 8C 00 00 
   752)     24826.9  Rx         0100  8  E8 FE 03 00 00 00 00 00 
   753)     24849.5  Rx         010A  8  C6 15 9C 0F 99 8C 00 00 
   754)     24878.5  Rx         0000  2  81 4A 
   755)     24899.6  Rx         010A  8  AB D9 9C 0F 99 8C 00 00 
   756)     24949.9  Rx         010A  8  58 9E 9D 0F 99 8C 00 00 
   757)     25000.1  Rx         010A  8  3D 62 9E 0F 99 8C 00 00 
   758)     25051.0  Rx         010A  8  D7 28 9F 0F 99 8C 00 00 
   759)     25082.4  Rx         0701  1  05 
   760)     25101.3  Rx         010A  8  A7 ED 9F 0F 99 8C 00 00 
   761)     25152.1  Rx         010A  8  09 B4 A0 0F 99 8C 00 00 
   762)     25202.7  Rx         010A  8  B3 79 A1 0F 99 8C 00 00 
   763)     25252.5  Rx         010A  8  2C 3C A2 0F 99 8C 00 00 
   764)     25279.3  Rx         0000  2  81 4B 
   765)     25299.6  Rx         018F  8  00 00 00 F2 D8 7F 00 00 
   766)     25302.6  Rx         010A  8  CF FF A2 0F 99 8C 00 00 
   767)     25307.1  Rx         038F  2  01 00 
   768)     25319.6  Rx         028F  8  00 00 70 08 00 38 00 00 
   769)     25353.1  Rx         010A  8  4D C5 A3 0F 99 8C 00 00 
   770)     25403.9  Rx         010A  8  D0 8B A4 0F 99 8C 00 00 
   771)     25415.8  Rx         071E  1  05 
   772)     25454.7  Rx         010A  8  23 52 A5 0F 99 8C 00 00 
   773)     25483.2  Rx         070A  1  RTR
   774)     25484.2  Rx         070A  1  05 
   775)     25504.5  Rx         010A  8  A1 14 A6 0F 99 8C 00 00 
   776)     25555.0  Rx         010A  8  C2 D9 A6 0F 99 8C 00 00 
   777)     25604.8  Rx         010A  8  7C 9C A7 0F 99 8C 00 00 
   778)     25655.3  Rx         010A  8  AE 61 A8 0F 99 8C 00 00 
   779)     25680.0  Rx         0000  2  81 4C 
   780)     25706.2  Rx         010A  8  80 28 A9 0F 99 8C 00 00 
   781)     25756.6  Rx         010A  8  87 ED A9 0F 99 8C 00 00 
   782)     25806.9  Rx         010A  8  9B B1 AA 0F 99 8C 00 00 
   783)     25827.9  Rx         0100  8  D1 02 04 00 00 00 00 00 
   784)     25856.7  Rx         010A  8  89 74 AB 0F 99 8C 00 00 
   785)     25906.8  Rx         010A  8  1F 38 AC 0F 99 8C 00 00 
   786)     25957.3  Rx         010A  8  08 FD AC 0F 99 8C 00 00 
   787)     26007.4  Rx         010A  8  1A C1 AD 0F 99 8C 00 00 
   788)     26039.0  Rx         070F  1  05 
   789)     26058.1  Rx         010A  8  1E 87 AE 0F 99 8C 00 00 
   790)     26080.6  Rx         0000  2  81 4D 
   791)     26085.2  Rx         0701  1  05 
   792)     26108.3  Rx         010A  8  36 4B AF 0F 99 8C 00 00 
   793)     26158.0  Rx         010A  8  85 0D B0 0F 99 8C 00 00 
   794)     26208.5  Rx         010A  8  97 D2 B0 0F 99 8C 00 00 
   795)     26259.3  Rx         010A  8  F3 98 B1 0F 99 8C 00 00 
   796)     26299.6  Rx         018F  8  00 00 00 F2 D8 7E 00 00 
   797)     26307.7  Rx         028F  8  00 00 70 08 00 38 00 00 
   798)     26309.0  Rx         010A  8  42 5B B2 0F 99 8C 00 00 
   799)     26319.1  Rx         038F  2  01 00 
   800)     26359.6  Rx         010A  8  AF 20 B3 0F 99 8C 00 00 
   801)     26409.5  Rx         010A  8  B8 E3 B3 0F 99 8C 00 00 
   802)     26460.2  Rx         010A  8  D7 A9 B4 0F 99 8C 00 00 
   803)     26480.7  Rx         0000  2  81 4E 
   804)     26510.6  Rx         010A  8  E3 6E B5 0F 99 8C 00 00 
   805)     26561.2  Rx         010A  8  9E 34 B6 0F 99 8C 00 00 
   806)     26611.5  Rx         010A  8  D5 F8 B6 0F 99 8C 00 00 
   807)     26662.0  Rx         010A  8  1B BE B7 0F 99 8C 00 00 
   808)     26685.3  Rx         070A  1  RTR
   809)     26686.1  Rx         070A  1  85 
   810)     26712.3  Rx         010A  8  9C 82 B8 0F 99 8C 00 00 
   811)     26763.0  Rx         010A  8  AD 48 B9 0F 99 8C 00 00 
   812)     26813.3  Rx         010A  8  F6 0C BA 0F 99 8C 00 00 
   813)     26827.8  Rx         0100  8  B9 06 04 00 00 00 00 00 
   814)     26835.8  Rx         071E  1  05 
   815)     26863.9  Rx         010A  8  A7 D2 BA 0F 99 8C 00 00 
   816)     26881.2  Rx         0000  2  81 4F 
   817)     26914.6  Rx         010A  8  CC 98 BB 0F 99 8C 00 00 
   818)     26965.0  Rx         010A  8  98 5D BC 0F 99 8C 00 00 
   819)     27015.1  Rx         010A  8  57 21 BD 0F 99 8C 00 00 
   820)     27065.3  Rx         010A  8  9F E5 BD 0F 99 8C 00 00 
   821)     27085.6  Rx         0701  1  05 
   822)     27116.0  Rx         010A  8  64 AB BE 0F 99 8C 00 00 
   823)     27165.8  Rx         010A  8  11 6E BF 0F 99 8C 00 00 
   824)     27215.8  Rx         010A  8  5C 31 C0 0F 99 8C 00 00 
   825)     27266.1  Rx         010A  8  F8 F5 C0 0F 99 8C 00 00 
   826)     27281.4  Rx         07EA  3  06 00 7F 
   827)     27299.7  Rx         018F  8  00 00 00 F2 D8 7E 00 00 
   828)     27307.1  Rx         038F  2  01 00 
   829)     27316.2  Rx         010A  8  A6 B9 C1 0F 99 8C 00 00 
   830)     27319.6  Rx         028F  8  00 00 70 08 00 38 00 00 
   831)     27366.9  Rx         010A  8  A2 7F C2 0F 99 8C 00 00 
   832)     27417.4  Rx         010A  8  E7 44 C3 0F 99 8C 00 00 
   833)     27439.0  Rx         070F  1  05 
   834)     27467.5  Rx         010A  8  A0 08 C4 0F 99 8C 00 00 
   835)     27517.8  Rx         010A  8  57 CD C4 0F 99 8C 00 00 
   836)     27568.5  Rx         010A  8  20 93 C5 0F 99 8C 00 00 
   837)     27619.3  Rx         010A  8  6A 59 C6 0F 99 8C 00 00 
   838)     27670.0  Rx         010A  8  AF 1F C7 0F 99 8C 00 00 
   839)     27720.1  Rx         010A  8  3C E3 C7 0F 99 8C 00 00 
   840)     27770.0  Rx         010A  8  2E A6 C8 0F 99 8C 00 00 
   841)     27820.4  Rx         010A  8  1F 6B C9 0F 99 8C 00 00 
   842)     27828.8  Rx         0100  8  A2 0A 04 00 00 00 00 00 
   843)     27871.1  Rx         010A  8  0D 31 CA 0F 99 8C 00 00 
   844)     27886.2  Rx         070A  1  RTR
   845)     27887.3  Rx         070A  1  05 
   846)     27921.4  Rx         010A  8  97 F5 CA 0F 99 8C 00 00 
   847)     27971.6  Rx         010A  8  E1 B9 CB 0F 99 8C 00 00 
   848)     28021.6  Rx         010A  8  D5 7C CC 0F 99 8C 00 00 
   849)     28071.9  Rx         010A  8  62 41 CD 0F 99 8C 00 00 
   850)     28086.9  Rx         0701  1  05 
   851)     28122.6  Rx         010A  8  72 07 CE 0F 99 8C 00 00 
   852)     28172.3  Rx         010A  8  D6 C9 CE 0F 99 8C 00 00 
   853)     28222.2  Rx         010A  8  C3 8C CF 0F 99 8C 00 00 
   854)     28255.9  Rx         071E  1  05 
   855)     28272.7  Rx         010A  8  FB 51 D0 0F 99 8C 00 00 
   856)     28299.7  Rx         018F  8  00 00 00 F2 D8 7E 00 00 
   857)     28307.7  Rx         028F  8  00 00 70 08 00 38 00 00 
   858)     28319.1  Rx         038F  2  01 00 
   859)     28323.2  Rx         010A  8  44 17 D1 0F 99 8C 00 00 
   860)     28373.5  Rx         010A  8  9E DB D1 0F 99 8C 00 00 
   861)     28423.9  Rx         010A  8  95 A0 D2 0F 99 8C 00 00 
   862)     28474.6  Rx         010A  8  AC 66 D3 0F 99 8C 00 00 
   863)     28525.2  Rx         010A  8  39 2C D4 0F 99 8C 00 00 
   864)     28575.2  Rx         010A  8  AE EF D4 0F 99 8C 00 00 
   865)     28625.5  Rx         010A  8  06 B4 D5 0F 99 8C 00 00 
   866)     28675.6  Rx         010A  8  0F 78 D6 0F 99 8C 00 00 
   867)     28726.0  Rx         010A  8  96 3C D7 0F 99 8C 00 00 
   868)     28776.7  Rx         010A  8  79 02 D8 0F 99 8C 00 00 
   869)     28826.8  Rx         010A  8  3D C6 D8 0F 99 8C 00 00 
   870)     28829.1  Rx         0100  8  8B 0E 04 00 00 00 00 00 
   871)     28839.0  Rx         070F  1  05 
   872)     28876.5  Rx         010A  8  CB 88 D9 0F 99 8C 00 00 
   873)     28926.6  Rx         010A  8  35 4C DA 0F 99 8C 00 00 
   874)     28977.4  Rx         010A  8  B6 12 DB 0F 99 8C 00 00 
   875)     29027.9  Rx         010A  8  08 D8 DB 0F 99 8C 00 00 
   876)     29077.8  Rx         010A  8  C0 9A DC 0F 99 8C 00 00 
   877)     29087.5  Rx         070A  1  RTR
   878)     29088.0  Rx         0701  1  05 
   879)     29089.1  Rx         070A  1  85 
   880)     29128.0  Rx         010A  8  EF 5E DD 0F 99 8C 00 00 
   881)     29178.0  Rx         010A  8  0C 22 DE 0F 99 8C 00 00 
   882)     29228.7  Rx         010A  8  78 E8 DE 0F 99 8C 00 00 
   883)     29278.6  Rx         010A  8  23 AB DF 0F 99 8C 00 00 
   884)     29299.7  Rx         018F  8  00 00 00 F2 D8 7D 00 00 
   885)     29307.1  Rx         038F  2  01 00 
   886)     29319.7  Rx         028F  8  00 00 70 08 00 38 00 00 
   887)     29328.8  Rx         010A  8  2C 6F E0 0F 99 8C 00 00 
   888)     29379.5  Rx         010A  8  52 35 E1 0F 99 8C 00 00 
   889)     29430.3  Rx         010A  8  B2 FB E1 0F 99 8C 00 00 
   890)     29481.1  Rx         010A  8  63 C2 E2 0F 99 8C 00 00 
   891)     29531.8  Rx         010A  8  7C 88 E3 0F 99 8C 00 00 
   892)     29582.5  Rx         010A  8  72 4E E4 0F 99 8C 00 00 
   893)     29632.2  Rx         010A  8  CF 10 E5 0F 99 8C 00 00 
   894)     29675.8  Rx         071E  1  05 
   895)     29682.1  Rx         010A  8  76 D3 E5 0F 99 8C 00 00 
   896)     29732.3  Rx         010A  8  84 97 E6 0F 99 8C 00 00 
   897)     29783.2  Rx         010A  8  63 5E E7 0F 99 8C 00 00 
   898)     29829.4  Rx         0100  8  73 12 04 00 00 00 00 00 
   899)     29833.6  Rx         010A  8  FB 22 E8 0F 99 8C 00 00 
   900)     29883.9  Rx         010A  8  75 E7 E8 0F 99 8C 00 00 
   901)     29934.3  Rx         010A  8  CF AC E9 0F 99 8C 00 00 
   902)     29984.4  Rx         010A  8  4F 70 EA 0F 99 8C 00 00 
   903)     30034.4  Rx         010A  8  9B 33 EB 0F 99 8C 00 00 
   904)     30084.9  Rx         010A  8  97 F8 EB 0F 99 8C 00 00 
   905)     30087.5  Rx         0701  1  05 
   906)     30135.7  Rx         010A  8  3F BF EC 0F 99 8C 00 00 
   907)     30186.1  Rx         010A  8  34 84 ED 0F 99 8C 00 00 
   908)     30237.0  Rx         010A  8  0B 4B EE 0F 99 8C 00 00 
   909)     30239.1  Rx         070F  1  05 
   910)     30281.4  Rx         0000  2  81 50 
   911)     30287.0  Rx         010A  8  63 0E EF 0F 99 8C 00 00 
   912)     30287.6  Rx         070A  1  RTR
   913)     30291.0  Rx         070A  1  05 
   914)     30299.7  Rx         018F  8  00 00 00 F2 D8 7D 00 00 
   915)     30307.7  Rx         028F  8  00 00 70 08 00 38 00 00 
   916)     30319.1  Rx         038F  2  01 00 
   917)     30337.5  Rx         010A  8  81 D3 EF 0F 99 8C 00 00 
   918)     30387.4  Rx         010A  8  A9 96 F0 0F 99 8C 00 00 
   919)     30437.3  Rx         010A  8  53 59 F1 0F 99 8C 00 00 
   920)     30487.6  Rx         010A  8  EF 1D F2 0F 99 8C 00 00 
   921)     30538.3  Rx         010A  8  FB E3 F2 0F 99 8C 00 00 
   922)     30588.9  Rx         010A  8  AF A9 F3 0F 99 8C 00 00 
   923)     30639.2  Rx         010A  8  27 6E F4 0F 99 8C 00 00 
   924)     30681.6  Rx         0000  2  81 51 
   925)     30689.4  Rx         010A  8  72 32 F5 0F 99 8C 00 00 
   926)     30739.8  Rx         010A  8  2E F7 F5 0F 99 8C 00 00 
   927)     30790.0  Rx         010A  8  D6 BA F6 0F 99 8C 00 00 
   928)     30830.4  Rx         0100  8  5C 16 04 00 00 00 00 00 
   929)     30840.3  Rx         010A  8  9B 7F F7 0F 99 8C 00 00 
   930)     30891.0  Rx         010A  8  D4 45 F8 0F 99 8C 00 00 
   931)     30941.4  Rx         010A  8  98 0A F9 0F 99 8C 00 00 
   932)     30991.5  Rx         010A  8  71 CE F9 0F 99 8C 00 00 
   933)     31041.9  Rx         010A  8  01 93 FA 0F 99 8C 00 00 
   934)     31082.0  Rx         0000  2  81 52 
   935)     31090.1  Rx         0701  1  05 
   936)     31091.8  Rx         010A  8  F2 55 FB 0F 99 8C 00 00 
   937)     31105.6  Rx         071E  1  05 
   938)     31142.0  Rx         010A  8  2E 1A FC 0F 99 8C 00 00 
   939)     31192.7  Rx         010A  8  28 E0 FC 0F 99 8C 00 00 
   940)     31242.6  Rx         010A  8  59 A3 FD 0F 99 8C 00 00 
   941)     31292.8  Rx         010A  8  3D 67 FE 0F 99 8C 00 00 
   942)     31299.7  Rx         018F  8  00 00 00 F2 D8 7D 00 00 
   943)     31307.2  Rx         038F  2  01 00 
   944)     31319.7  Rx         028F  8  00 00 70 08 00 38 00 00 
   945)     31342.7  Rx         010A  8  18 2A FF 0F 99 8C 00 00 
   946)     31393.1  Rx         010A  8  31 EF FF 0F 99 8C 00 00 
   947)     31443.2  Rx         010A  8  C5 B2 00 10 99 8C 00 00 
   948)     31482.2  Rx         0000  2  81 53 
   949)     31490.5  Rx         070A  1  RTR
   950)     31492.2  Rx         070A  1  85 
   951)     31493.2  Rx         010A  8  B6 75 01 10 99 8C 00 00 
   952)     31543.6  Rx         010A  8  0F 3B 02 10 99 8C 00 00 
   953)     31594.4  Rx         010A  8  4B 01 03 10 99 8C 00 00 
   954)     31639.1  Rx         070F  1  05 
   955)     31644.8  Rx         010A  8  41 C6 03 10 99 8C 00 00 
   956)     31695.3  Rx         010A  8  8E 8B 04 10 99 8C 00 00 
   957)     31745.5  Rx         010A  8  A2 4F 05 10 99 8C 00 00 
   958)     31795.5  Rx         010A  8  4F 13 06 10 99 8C 00 00 
   959)     31830.4  Rx         0100  8  44 1A 04 00 00 00 00 00 
   960)     31846.0  Rx         010A  8  4E D8 06 10 99 8C 00 00 
   961)     31883.0  Rx         0000  2  81 54 
   962)     31895.8  Rx         010A  8  C0 9A 07 10 99 8C 00 00 
   963)     31946.3  Rx         010A  8  ED 5F 08 10 99 8C 00 00 
   964)     31996.4  Rx         010A  8  AB 23 09 10 99 8C 00 00 
   965)     32046.9  Rx         010A  8  F2 E8 09 10 99 8C 00 00 
   966)     32091.7  Rx         0701  1  05 
   967)     32097.3  Rx         010A  8  DC AD 0A 10 99 8C 00 00 
   968)     32147.6  Rx         010A  8  3F 72 0B 10 99 8C 00 00 
   969)     32197.5  Rx         010A  8  6C 35 0C 10 99 8C 00 00 
   970)     32247.7  Rx         010A  8  5C F9 0C 10 99 8C 00 00 
   971)     32278.4  Rx         060A  8  40 20 26 05 00 00 00 00 
   972)     32280.0  Rx         058A  8  4B 20 26 05 03 00 00 00 
   973)     32283.1  Rx         0000  2  81 55 
   974)     32298.1  Rx         010A  8  24 BE 0D 10 99 8C 00 00 
   975)     32299.7  Rx         018F  8  00 00 00 F2 D8 7D 00 00 
   976)     32307.7  Rx         028F  8  00 00 70 08 00 38 00 00 
   977)     32319.2  Rx         038F  2  01 00 
   978)     32348.3  Rx         010A  8  4A 82 0E 10 99 8C 00 00 
   979)     32398.2  Rx         010A  8  8D 45 0F 10 99 8C 00 00 
   980)     32448.9  Rx         010A  8  81 0B 10 10 99 8C 00 00 
   981)     32499.4  Rx         010A  8  C0 D0 10 10 99 8C 00 00 
   982)     32526.1  Rx         071E  1  05 
   983)     32550.2  Rx         010A  8  F4 96 11 10 99 8C 00 00 
   984)     32600.0  Rx         010A  8  8C 59 12 10 99 8C 00 00 
   985)     32650.5  Rx         010A  8  FD 1E 13 10 99 8C 00 00 
   986)     32683.7  Rx         0000  2  81 56 
   987)     32692.0  Rx         070A  1  RTR
   988)     32694.7  Rx         070A  1  05 
   989)     32700.8  Rx         010A  8  47 E3 13 10 99 8C 00 00 
   990)     32751.2  Rx         010A  8  2D A8 14 10 99 8C 00 00 
   991)     32801.3  Rx         010A  8  FA 6B 15 10 99 8C 00 00 
   992)     32831.3  Rx         0100  8  2D 1E 04 00 00 00 00 00 
   993)     32851.8  Rx         010A  8  51 31 16 10 99 8C 00 00 
   994)     32901.7  Rx         010A  8  09 F4 16 10 99 8C 00 00 
   995)     32952.2  Rx         010A  8  6B B9 17 10 99 8C 00 00 
   996)     33003.0  Rx         010A  8  F2 7F 18 10 99 8C 00 00 
   997)     33039.1  Rx         070F  1  05 
   998)     33053.1  Rx         010A  8  91 43 19 10 99 8C 00 00 
   999)     33083.8  Rx         0000  2  81 57 
  1000)     33093.0  Rx         0701  1  05 
  1001)     33103.6  Rx         010A  8  C5 08 1A 10 99 8C 00 00 
  1002)     33153.9  Rx         010A  8  6E CD 1A 10 99 8C 00 00 
  1003)     33203.7  Rx         010A  8  DF 8F 1B 10 99 8C 00 00 
  1004)     33253.9  Rx         010A  8  C3 53 1C 10 99 8C 00 00 
  1005)     33299.7  Rx         018F  8  00 00 00 F2 D8 7C 00 00 
  1006)     33303.9  Rx         010A  8  4D 17 1D 10 99 8C 00 00 
  1007)     33307.2  Rx         038F  2  01 00 
  1008)     33319.7  Rx         028F  8  00 00 70 08 00 38 00 00 
  1009)     33354.7  Rx         010A  8  86 DD 1D 10 99 8C 00 00 
  1010)     33405.2  Rx         010A  8  FA A2 1E 10 99 8C 00 00 
  1011)     33455.3  Rx         010A  8  8C 66 1F 10 99 8C 00 00 
  1012)     33484.1  Rx         0000  2  81 58 
  1013)     33505.6  Rx         010A  8  2E 2B 20 10 99 8C 00 00 
  1014)     33556.1  Rx         010A  8  43 F0 20 10 99 8C 00 00 
  1015)     33606.7  Rx         010A  8  3C B6 21 10 99 8C 00 00 
  1016)     33656.9  Rx         010A  8  32 7A 22 10 99 8C 00 00 
  1017)     33706.7  Rx         010A  8  DF 3C 23 10 99 8C 00 00 
  1018)     33756.9  Rx         010A  8  98 00 24 10 99 8C 00 00 
  1019)     33807.6  Rx         010A  8  C6 C6 24 10 99 8C 00 00 
  1020)     33832.0  Rx         0100  8  15 22 04 00 00 00 00 00 
  1021)     33857.9  Rx         010A  8  33 8B 25 10 99 8C 00 00 
  1022)     33884.7  Rx         0000  2  81 59 
  1023)     33894.1  Rx         070A  1  RTR
  1024)     33896.2  Rx         070A  1  85 
  1025)     33908.1  Rx         010A  8  59 4F 26 10 99 8C 00 00 
  1026)     33945.6  Rx         071E  1  05 
  1027)     33958.9  Rx         010A  8  AB 15 27 10 99 8C 00 00 
  1028)     34009.6  Rx         010A  8  01 DC 27 10 99 8C 00 00 
  1029)     34059.6  Rx         010A  8  EF 9E 28 10 99 8C 00 00 
  1030)     34094.7  Rx         0701  1  05 
  1031)     34109.5  Rx         010A  8  31 62 29 10 99 8C 00 00 
  1032)     34159.9  Rx         010A  8  37 27 2A 10 99 8C 00 00 
  1033)     34209.9  Rx         010A  8  4C EA 2A 10 99 8C 00 00 
  1034)     34260.6  Rx         010A  8  6D B0 2B 10 99 8C 00 00 
  1035)     34285.2  Rx         0000  2  81 5A 
  1036)     34299.8  Rx         018F  8  00 00 00 F2 D8 7C 00 00 
  1037)     34307.7  Rx         028F  8  00 00 70 08 00 38 00 00 
  1038)     34311.5  Rx         010A  8  FF 76 2C 10 99 8C 00 00 
  1039)     34319.2  Rx         038F  2  01 00 
  1040)     34362.2  Rx         010A  8  66 3D 2D 10 99 8C 00 00 
  1041)     34412.9  Rx         010A  8  1A 03 2E 10 99 8C 00 00 
  1042)     34439.1  Rx         070F  1  05 
  1043)     34462.9  Rx         010A  8  6D C6 2E 10 99 8C 00 00 
  1044)     34513.5  Rx         010A  8  42 8C 2F 10 99 8C 00 00 
  1045)     34564.3  Rx         010A  8  9F 52 30 10 99 8C 00 00 
  1046)     34614.1  Rx         010A  8  5A 15 31 10 99 8C 00 00 
  1047)     34664.8  Rx         010A  8  70 DB 31 10 99 8C 00 00 
  1048)     34685.6  Rx         0000  2  81 5B 
  1049)     34715.3  Rx         010A  8  74 A0 32 10 99 8C 00 00 
  1050)     34765.9  Rx         010A  8  2E 66 33 10 99 8C 00 00 
  1051)     34815.9  Rx         010A  8  79 29 34 10 99 8C 00 00 
  1052)     34832.6  Rx         0100  8  FE 25 04 00 00 00 00 00 
  1053)     34866.5  Rx         010A  8  54 EF 34 10 99 8C 00 00 
  1054)     34916.6  Rx         010A  8  DF B2 35 10 99 8C 00 00 
  1055)     34967.1  Rx         010A  8  63 78 36 10 99 8C 00 00 
  1056)     35017.4  Rx         010A  8  90 3C 37 10 99 8C 00 00 
  1057)     35067.3  Rx         010A  8  51 FF 37 10 99 8C 00 00 
  1058)     35085.7  Rx         0000  2  81 5C 
  1059)     35097.3  Rx         070A  1  RTR
  1060)     35097.8  Rx         0701  1  05 
  1061)     35098.5  Rx         070A  1  05 
  1062)     35117.4  Rx         010A  8  37 C3 38 10 99 8C 00 00 
  1063)     35167.7  Rx         010A  8  DD 87 39 10 99 8C 00 00 
  1064)     35218.0  Rx         010A  8  1E 4C 3A 10 99 8C 00 00 
  1065)     35268.6  Rx         010A  8  EF 11 3B 10 99 8C 00 00 
  1066)     35299.7  Rx         018F  8  00 00 00 F2 D8 7C 00 00 
  1067)     35307.2  Rx         038F  2  01 00 
  1068)     35318.5  Rx         010A  8  AB D4 3B 10 99 8C 00 00 
  1069)     35319.8  Rx         028F  8  00 00 70 08 00 38 00 00 
  1070)     35366.2  Rx         071E  1  05 
  1071)     35368.9  Rx         010A  8  F0 99 3C 10 99 8C 00 00 
  1072)     35419.2  Rx         010A  8  0D 5E 3D 10 99 8C 00 00 
  1073)     35469.9  Rx         010A  8  24 24 3E 10 99 8C 00 00 
  1074)     35486.0  Rx         0000  2  81 5D 
  1075)     35520.4  Rx         010A  8  3D E9 3E 10 99 8C 00 00 
  1076)     35570.8  Rx         010A  8  5C AE 3F 10 99 8C 00 00 
  1077)     35621.4  Rx         010A  8  04 74 40 10 99 8C 00 00 
  1078)     35671.7  Rx         010A  8  6F 38 41 10 99 8C 00 00 
  1079)     35722.4  Rx         010A  8  8A FE 41 10 99 8C 00 00 
  1080)     35738.6  Rx         060F  8  40 01 22 01 00 00 00 00 
  1081)     35773.2  Rx         010A  8  1D C5 42 10 99 8C 00 00 
  1082)     35787.7  Rx         058F  8  4B 01 22 01 16 01 00 00 
  1083)     35788.8  Rx         060F  8  40 00 22 01 00 00 00 00 
  1084)     35823.7  Rx         010A  8  86 8A 43 10 99 8C 00 00 
  1085)     35833.3  Rx         0100  8  E7 29 04 00 00 00 00 00 
  1086)     35839.7  Rx         058F  8  4B 00 22 01 E6 00 00 00 
  1087)     35847.1  Rx         070F  1  05 
  1088)     35874.6  Rx         010A  8  0B 51 44 10 99 8C 00 00 
  1089)     35886.0  Rx         0000  2  81 5E 
  1090)     35924.8  Rx         010A  8  31 15 45 10 99 8C 00 00 
  1091)     35974.9  Rx         010A  8  2B D9 45 10 99 8C 00 00 
  1092)     36025.5  Rx         010A  8  88 9E 46 10 99 8C 00 00 
  1093)     36075.4  Rx         010A  8  72 61 47 10 99 8C 00 00 
  1094)     36099.1  Rx         0701  1  05 
  1095)     36125.3  Rx         010A  8  45 24 48 10 99 8C 00 00 
  1096)     36175.4  Rx         010A  8  FC E7 48 10 99 8C 00 00 
  1097)     36226.3  Rx         010A  8  CF AE 49 10 99 8C 00 00 
  1098)     36276.3  Rx         010A  8  00 72 4A 10 99 8C 00 00 
  1099)     36286.1  Rx         0000  2  81 5F 
  1100)     36299.1  Rx         070A  1  RTR
  1101)     36300.1  Rx         018F  8  00 00 00 F2 D8 7C 00 00 
  1102)     36300.5  Rx         070A  1  85 
  1103)     36307.8  Rx         028F  8  00 00 70 08 00 38 00 00 
  1104)     36319.2  Rx         038F  2  01 00 
  1105)     36326.4  Rx         010A  8  D6 35 4B 10 99 8C 00 00 
  1106)     36377.0  Rx         010A  8  67 FB 4B 10 99 8C 00 00 
  1107)     36426.7  Rx         010A  8  E0 BD 4C 10 99 8C 00 00 
  1108)     36476.6  Rx         010A  8  B9 80 4D 10 99 8C 00 00 
  1109)     36527.4  Rx         010A  8  2B 47 4E 10 99 8C 00 00 
  1110)     36578.2  Rx         010A  8  5A 0D 4F 10 99 8C 00 00 
  1111)     36628.0  Rx         010A  8  FD CF 4F 10 99 8C 00 00 
  1112)     36678.6  Rx         010A  8  C4 95 50 10 99 8C 00 00 
  1113)     36686.7  Rx         07EA  3  06 00 7F 
  1114)     36729.1  Rx         010A  8  E3 5A 51 10 99 8C 00 00 
  1115)     36779.9  Rx         010A  8  65 21 52 10 99 8C 00 00 
  1116)     36785.6  Rx         071E  1  05 
  1117)     36829.9  Rx         010A  8  DB E4 52 10 99 8C 00 00 
  1118)     36834.1  Rx         0100  8  D0 2D 04 00 00 00 00 00 
  1119)     36880.8  Rx         010A  8  A0 AB 53 10 99 8C 00 00 
  1120)     36931.4  Rx         010A  8  4F 71 54 10 99 8C 00 00 
  1121)     36982.4  Rx         010A  8  68 38 55 10 99 8C 00 00 
  1122)     37032.7  Rx         010A  8  DD FC 55 10 99 8C 00 00 
  1123)     37083.3  Rx         010A  8  AD C2 56 10 99 8C 00 00 
  1124)     37100.7  Rx         0701  1  05 
  1125)     37133.9  Rx         010A  8  28 88 57 10 99 8C 00 00 
  1126)     37184.6  Rx         010A  8  3F 4E 58 10 99 8C 00 00 
  1127)     37235.4  Rx         010A  8  D2 14 59 10 99 8C 00 00 
  1128)     37239.2  Rx         070F  1  05 
  1129)     37286.3  Rx         010A  8  71 DB 59 10 99 8C 00 00 
  1130)     37299.8  Rx         018F  8  00 00 00 F2 D8 7C 00 00 
  1131)     37307.2  Rx         038F  2  01 00 
  1132)     37319.8  Rx         028F  8  00 00 7A 08 00 38 00 00 
  1133)     37336.2  Rx         010A  8  7E 9E 5A 10 99 8C 00 00 
  1134)     37386.2  Rx         010A  8  0F 62 5B 10 99 8C 00 00 
  1135)     37436.5  Rx         010A  8  72 26 5C 10 99 8C 00 00 
  1136)     37487.1  Rx         010A  8  D7 EB 5C 10 99 8C 00 00 
  1137)     37501.4  Rx         070A  1  RTR
  1138)     37503.8  Rx         070A  1  05 
  1139)     37536.9  Rx         010A  8  B4 AE 5D 10 99 8C 00 00 
  1140)     37586.8  Rx         010A  8  68 71 5E 10 99 8C 00 00 
  1141)     37637.2  Rx         010A  8  7C 36 5F 10 99 8C 00 00 
  1142)     37686.9  Rx         010A  8  AB F8 5F 10 99 8C 00 00 
  1143)     37737.5  Rx         010A  8  2C BE 60 10 99 8C 00 00 
  1144)     37788.0  Rx         010A  8  51 83 61 10 99 8C 00 00 
  1145)     37835.1  Rx         0100  8  B9 31 04 00 00 00 00 00 
  1146)     37838.4  Rx         010A  8  08 48 62 10 99 8C 00 00 
  1147)     37889.1  Rx         010A  8  54 0E 63 10 99 8C 00 00 
  1148)     37939.6  Rx         010A  8  75 D3 63 10 99 8C 00 00 
  1149)     37989.3  Rx         010A  8  C8 95 64 10 99 8C 00 00 
  1150)     38039.4  Rx         010A  8  63 59 65 10 99 8C 00 00 
  1151)     38089.7  Rx         010A  8  F9 1D 66 10 99 8C 00 00 
  1152)     38102.7  Rx         0701  1  05 
  1153)     38140.4  Rx         010A  8  E0 E3 66 10 99 8C 00 00 
  1154)     38190.6  Rx         010A  8  DB A7 67 10 99 8C 00 00 
  1155)     38206.1  Rx         071E  1  05 
  1156)     38241.4  Rx         010A  8  67 6E 68 10 99 8C 00 00 
  1157)     38291.9  Rx         010A  8  93 33 69 10 99 8C 00 00 
  1158)     38299.8  Rx         018F  8  00 00 00 F2 D8 7C 00 00 
  1159)     38307.8  Rx         028F  8  00 00 7A 08 00 38 00 00 
  1160)     38319.3  Rx         038F  2  01 00 
  1161)     38342.6  Rx         010A  8  BA F9 69 10 99 8C 00 00 
  1162)     38392.3  Rx         010A  8  11 BC 6A 10 99 8C 00 00 
  1163)     38443.0  Rx         010A  8  E2 81 6B 10 99 8C 00 00 
  1164)     38492.9  Rx         010A  8  ED 44 6C 10 99 8C 00 00 
  1165)     38542.9  Rx         010A  8  2F 08 6D 10 99 8C 00 00 
  1166)     38593.5  Rx         010A  8  03 CE 6D 10 99 8C 00 00 
  1167)     38639.2  Rx         070F  1  05 
  1168)     38644.3  Rx         010A  8  34 94 6E 10 99 8C 00 00 
  1169)     38695.0  Rx         010A  8  46 5A 6F 10 99 8C 00 00 
  1170)     38702.8  Rx         070A  1  RTR
  1171)     38705.1  Rx         070A  1  85 
  1172)     38745.8  Rx         010A  8  92 20 70 10 99 8C 00 00 
  1173)     38795.8  Rx         010A  8  12 E4 70 10 99 8C 00 00 
  1174)     38835.1  Rx         0100  8  A1 35 04 00 00 00 00 00 
  1175)     38846.4  Rx         010A  8  D1 A9 71 10 99 8C 00 00 
  1176)     38896.5  Rx         010A  8  46 6D 72 10 99 8C 00 00 
  1177)     38947.0  Rx         010A  8  B0 32 73 10 99 8C 00 00 
  1178)     38997.6  Rx         010A  8  40 F8 73 10 99 8C 00 00 
  1179)     39047.7  Rx         010A  8  F4 BB 74 10 99 8C 00 00 
  1180)     39098.1  Rx         010A  8  1F 81 75 10 99 8C 00 00 
  1181)     39104.0  Rx         0701  1  05 
  1182)     39148.0  Rx         010A  8  C8 43 76 10 99 8C 00 00 
  1183)     39198.1  Rx         010A  8  8A 07 77 10 99 8C 00 00 
  1184)     39248.6  Rx         010A  8  DB CC 77 10 99 8C 00 00 
  1185)     39298.7  Rx         010A  8  5C 90 78 10 99 8C 00 00 
  1186)     39299.8  Rx         018F  8  00 00 00 F2 D8 7C 00 00 
  1187)     39307.3  Rx         038F  2  01 00 
  1188)     39319.8  Rx         028F  8  00 00 7A 08 00 38 00 00 
  1189)     39348.9  Rx         010A  8  9A 54 79 10 99 8C 00 00 
  1190)     39399.6  Rx         010A  8  B7 1A 7A 10 99 8C 00 00 
  1191)     39449.4  Rx         010A  8  66 DD 7A 10 99 8C 00 00 
  1192)     39499.9  Rx         010A  8  98 A2 7B 10 99 8C 00 00 
  1193)     39550.5  Rx         010A  8  02 68 7C 10 99 8C 00 00 
  1194)     39600.9  Rx         010A  8  06 2D 7D 10 99 8C 00 00 
  1195)     39625.9  Rx         071E  1  05 
  1196)     39651.3  Rx         010A  8  B6 F1 7D 10 99 8C 00 00 
  1197)     39686.8  Rx         0000  2  81 60 
  1198)     39701.5  Rx         010A  8  09 B6 7E 10 99 8C 00 00 
  1199)     39752.2  Rx         010A  8  2E 7C 7F 10 99 8C 00 00 
  1200)     39802.4  Rx         010A  8  1E 40 80 10 99 8C 00 00 
  1201)     39836.0  Rx         0100  8  8A 39 04 00 00 00 00 00 
  1202)     39852.4  Rx         010A  8  2B 03 81 10 99 8C 00 00 
  1203)     39903.2  Rx         010A  8  F6 C9 81 10 99 8C 00 00 
  1204)     39905.9  Rx         070A  1  RTR
  1205)     39908.7  Rx         070A  1  05 
  1206)     39953.1  Rx         010A  8  90 8C 82 10 99 8C 00 00 
  1207)     40003.1  Rx         010A  8  22 50 83 10 99 8C 00 00 
  1208)     40039.2  Rx         070F  1  05 
  1209)     40053.9  Rx         010A  8  76 16 84 10 99 8C 00 00 
  1210)     40086.9  Rx         0000  2  81 61 
  1211)     40104.0  Rx         010A  8  3B DA 84 10 99 8C 00 00 
  1212)     40106.7  Rx         0701  1  05 
  1213)     40154.8  Rx         010A  8  9B A0 85 10 99 8C 00 00 
  1214)     40205.5  Rx         010A  8  B0 66 86 10 99 8C 00 00 
  1215)     40256.3  Rx         010A  8  F7 2C 87 10 99 8C 00 00 
  1216)     40299.8  Rx         018F  8  00 00 00 F2 D8 7C 00 00 
  1217)     40306.0  Rx         010A  8  4D EF 87 10 99 8C 00 00 
  1218)     40307.8  Rx         028F  8  00 00 7A 08 00 38 00 00 
  1219)     40319.3  Rx         038F  2  01 00 
  1220)     40356.3  Rx         010A  8  8B B3 88 10 99 8C 00 00 
  1221)     40406.0  Rx         010A  8  17 76 89 10 99 8C 00 00 
  1222)     40456.6  Rx         010A  8  76 3B 8A 10 99 8C 00 00 
  1223)     40487.6  Rx         0000  2  81 62 
  1224)     40507.5  Rx         010A  8  3F 02 8B 10 99 8C 00 00 
  1225)     40558.3  Rx         010A  8  F0 C8 8B 10 99 8C 00 00 
  1226)     40608.9  Rx         010A  8  75 8E 8C 10 99 8C 00 00 
  1227)     40659.3  Rx         010A  8  77 53 8D 10 99 8C 00 00 
  1228)     40709.7  Rx         010A  8  68 18 8E 10 99 8C 00 00 
  1229)     40759.8  Rx         010A  8  E5 DB 8E 10 99 8C 00 00 
  1230)     40810.3  Rx         010A  8  4C A1 8F 10 99 8C 00 00 
  1231)     40836.5  Rx         0100  8  72 3D 04 00 00 00 00 00 
  1232)     40860.2  Rx         010A  8  3D 64 90 10 99 8C 00 00 
  1233)     40887.9  Rx         0000  2  81 63 
  1234)     40910.1  Rx         010A  8  17 27 91 10 99 8C 00 00 
  1235)     40960.2  Rx         010A  8  E1 EA 91 10 99 8C 00 00 
  1236)     41010.2  Rx         010A  8  22 AE 92 10 99 8C 00 00 
  1237)     41046.3  Rx         071E  1  05 
  1238)     41060.0  Rx         010A  8  E0 70 93 10 99 8C 00 00 
  1239)     41107.6  Rx         070A  1  RTR
  1240)     41108.1  Rx         0701  1  05 
  1241)     41108.6  Rx         070A  1  85 
  1242)     41110.3  Rx         010A  8  48 35 94 10 99 8C 00 00 
  1243)     41160.9  Rx         010A  8  EB FA 94 10 99 8C 00 00 
  1244)     41211.3  Rx         010A  8  F0 BF 95 10 99 8C 00 00 
  1245)     41262.2  Rx         010A  8  8D 86 96 10 99 8C 00 00 
  1246)     41288.3  Rx         0000  2  81 64 
  1247)     41299.8  Rx         018F  8  00 00 00 F2 D8 7C 00 00 
  1248)     41307.3  Rx         038F  2  01 00 
  1249)     41312.5  Rx         010A  8  12 4B 97 10 99 8C 00 00 
  1250)     41319.9  Rx         028F  8  00 00 7A 08 00 38 00 00 
  1251)     41363.5  Rx         010A  8  E0 11 98 10 99 8C 00 00 
  1252)     41414.1  Rx         010A  8  B5 D7 98 10 99 8C 00 00 
  1253)     41439.2  Rx         070F  1  05 
  1254)     41464.9  Rx         010A  8  26 9E 99 10 99 8C 00 00 
  1255)     41515.6  Rx         010A  8  8C 64 9A 10 99 8C 00 00 
  1256)     41565.6  Rx         010A  8  B9 27 9B 10 99 8C 00 00 
  1257)     41615.9  Rx         010A  8  2B EC 9B 10 99 8C 00 00 
  1258)     41665.8  Rx         010A  8  E8 AE 9C 10 99 8C 00 00 
  1259)     41689.2  Rx         0000  2  81 65 
  1260)     41716.5  Rx         010A  8  47 75 9D 10 99 8C 00 00 
  1261)     41767.3  Rx         010A  8  B2 3B 9E 10 99 8C 00 00 
  1262)     41817.2  Rx         010A  8  9A FE 9E 10 99 8C 00 00 
  1263)     41837.2  Rx         0100  8  5B 41 04 00 00 00 00 00 
  1264)     41867.3  Rx         010A  8  59 C2 9F 10 99 8C 00 00 
  1265)     41917.9  Rx         010A  8  D1 87 A0 10 99 8C 00 00 
  1266)     41968.2  Rx         010A  8  81 4C A1 10 99 8C 00 00 
  1267)     42018.3  Rx         010A  8  1C 10 A2 10 99 8C 00 00 
  1268)     42069.0  Rx         010A  8  F7 D5 A2 10 99 8C 00 00 
  1269)     42089.2  Rx         0000  2  81 66 
  1270)     42109.6  Rx         0701  1  05 
  1271)     42119.5  Rx         010A  8  5D 9B A3 10 99 8C 00 00 
  1272)     42170.2  Rx         010A  8  4A 61 A4 10 99 8C 00 00 
  1273)     42220.2  Rx         010A  8  AF 24 A5 10 99 8C 00 00 
  1274)     42270.3  Rx         010A  8  75 E8 A5 10 99 8C 00 00 
  1275)     42299.8  Rx         018F  8  00 00 00 F2 D8 7B 00 00 
  1276)     42307.9  Rx         028F  8  00 00 7A 08 00 38 00 00 
  1277)     42310.1  Rx         070A  1  RTR
  1278)     42311.8  Rx         070A  1  05 
  1279)     42319.3  Rx         038F  2  01 00 
  1280)     42321.0  Rx         010A  8  3B AE A6 10 99 8C 00 00 
  1281)     42331.5  Rx         060A  8  40 20 26 05 00 00 00 00 
  1282)     42334.7  Rx         058A  8  4B 20 26 05 03 00 00 00 
  1283)     42371.2  Rx         010A  8  96 72 A7 10 99 8C 00 00 
  1284)     42421.3  Rx         010A  8  68 36 A8 10 99 8C 00 00 
  1285)     42466.1  Rx         071E  1  05 
  1286)     42471.6  Rx         010A  8  B3 FA A8 10 99 8C 00 00 
  1287)     42489.1  Rx         0000  2  81 67 
  1288)     42521.9  Rx         010A  8  37 BF A9 10 99 8C 00 00 
  1289)     42572.7  Rx         010A  8  B1 85 AA 10 99 8C 00 00 
  1290)     42622.5  Rx         010A  8  6C 48 AB 10 99 8C 00 00 
  1291)     42673.3  Rx         010A  8  A4 0E AC 10 99 8C 00 00 
  1292)     42723.7  Rx         010A  8  C1 D3 AC 10 99 8C 00 00 
  1293)     42774.4  Rx         010A  8  7B 99 AD 10 99 8C 00 00 
  1294)     42824.6  Rx         010A  8  AC 5D AE 10 99 8C 00 00 
  1295)     42837.1  Rx         0100  8  43 45 04 00 00 00 00 00 
  1296)     42839.2  Rx         070F  1  05 
  1297)     42875.1  Rx         010A  8  D6 22 AF 10 99 8C 00 00 
  1298)     42889.5  Rx         0000  2  81 68 
  1299)     42925.2  Rx         010A  8  9C E6 AF 10 99 8C 00 00 
  1300)     42975.5  Rx         010A  8  43 AB B0 10 99 8C 00 00 
  1301)     43025.6  Rx         010A  8  9F 6E B1 10 99 8C 00 00 
  1302)     43075.6  Rx         010A  8  47 32 B2 10 99 8C 00 00 
  1303)     43112.2  Rx         0701  1  05 
  1304)     43126.1  Rx         010A  8  57 F7 B2 10 99 8C 00 00 
  1305)     43176.5  Rx         010A  8  77 BC B3 10 99 8C 00 00 
  1306)     43226.8  Rx         010A  8  F1 80 B4 10 99 8C 00 00 
  1307)     43277.1  Rx         010A  8  7E 45 B5 10 99 8C 00 00 
  1308)     43290.1  Rx         0000  2  81 69 
  1309)     43299.8  Rx         018F  8  00 00 00 F2 D8 7B 00 00 
  1310)     43307.3  Rx         038F  2  01 00 
  1311)     43319.8  Rx         028F  8  00 00 7A 08 00 38 00 00 
  1312)     43327.2  Rx         010A  8  27 09 B6 10 99 8C 00 00 
  1313)     43377.8  Rx         010A  8  7C CE B6 10 99 8C 00 00 
  1314)     43428.5  Rx         010A  8  AC 94 B7 10 99 8C 00 00 
  1315)     43478.5  Rx         010A  8  FC 57 B8 10 99 8C 00 00 
  1316)     43513.1  Rx         070A  1  RTR
  1317)     43515.2  Rx         070A  1  85 
  1318)     43529.1  Rx         010A  8  C9 1D B9 10 99 8C 00 00 
  1319)     43579.1  Rx         010A  8  DB E0 B9 10 99 8C 00 00 
  1320)     43629.2  Rx         010A  8  A8 A4 BA 10 99 8C 00 00 
  1321)     43679.7  Rx         010A  8  EF 69 BB 10 99 8C 00 00 
  1322)     43691.1  Rx         0000  2  81 6A 
  1323)     43729.7  Rx         010A  8  43 2D BC 10 99 8C 00 00 
  1324)     43779.6  Rx         010A  8  05 F0 BC 10 99 8C 00 00 
  1325)     43829.6  Rx         010A  8  94 B3 BD 10 99 8C 00 00 
  1326)     43837.1  Rx         0100  8  2B 49 04 00 00 00 00 00 
  1327)     43880.1  Rx         010A  8  CB 78 BE 10 99 8C 00 00 
  1328)     43886.3  Rx         071E  1  05 
  1329)     43929.9  Rx         010A  8  79 3B BF 10 99 8C 00 00 
  1330)     43980.6  Rx         010A  8  39 01 C0 10 99 8C 00 00 
  1331)     44030.7  Rx         010A  8  E0 C4 C0 10 99 8C 00 00 
  1332)     44081.4  Rx         010A  8  41 8B C1 10 99 8C 00 00 
  1333)     44091.5  Rx         0000  2  81 6B 
  1334)     44114.2  Rx         0701  1  05 
  1335)     44132.2  Rx         010A  8  DB 51 C2 10 99 8C 00 00 
  1336)     44182.6  Rx         010A  8  84 16 C3 10 99 8C 00 00 
  1337)     44233.4  Rx         010A  8  0C DD C3 10 99 8C 00 00 
  1338)     44239.2  Rx         070F  1  05 
  1339)     44283.7  Rx         010A  8  74 A1 C4 10 99 8C 00 00 
  1340)     44299.8  Rx         018F  8  00 00 00 F2 D8 7B 00 00 
  1341)     44307.8  Rx         028F  8  00 00 70 08 00 38 00 00 
  1342)     44319.3  Rx         038F  2  01 00 
  1343)     44334.6  Rx         010A  8  05 68 C5 10 99 8C 00 00 
  1344)     44384.5  Rx         010A  8  32 2B C6 10 99 8C 00 00 
  1345)     44434.6  Rx         010A  8  9F EE C6 10 99 8C 00 00 
  1346)     44485.1  Rx         010A  8  40 B4 C7 10 99 8C 00 00 
  1347)     44491.9  Rx         0000  2  81 6C 
  1348)     44535.7  Rx         010A  8  8C 79 C8 10 99 8C 00 00 
  1349)     44585.5  Rx         010A  8  49 3C C9 10 99 8C 00 00 
  1350)     44636.2  Rx         010A  8  4F 02 CA 10 99 8C 00 00 
  1351)     44686.3  Rx         010A  8  2F C6 CA 10 99 8C 00 00 
  1352)     44714.5  Rx         070A  1  RTR
  1353)     44717.2  Rx         070A  1  05 
  1354)     44736.7  Rx         010A  8  D9 8A CB 10 99 8C 00 00 
  1355)     44786.7  Rx         010A  8  5F 4E CC 10 99 8C 00 00 
  1356)     44837.3  Rx         0100  8  13 4D 04 00 00 00 00 00 
  1357)     44838.3  Rx         010A  8  B9 13 CD 10 99 8C 00 00 
  1358)     44887.2  Rx         010A  8  B6 D6 CD 10 99 8C 00 00 
  1359)     44892.1  Rx         0000  2  81 6D 
  1360)     44937.8  Rx         010A  8  87 9C CE 10 99 8C 00 00 
  1361)     44988.3  Rx         010A  8  C4 61 CF 10 99 8C 00 00 
  1362)     45038.5  Rx         010A  8  9B 25 D0 10 99 8C 00 00 
  1363)     45089.2  Rx         010A  8  02 EC D0 10 99 8C 00 00 
  1364)     45114.6  Rx         0701  1  05 
  1365)     45139.7  Rx         010A  8  FF B0 D1 10 99 8C 00 00 
  1366)     45190.3  Rx         010A  8  D5 76 D2 10 99 8C 00 00 
  1367)     45240.3  Rx         010A  8  EB 39 D3 10 99 8C 00 00 
  1368)     45290.0  Rx         010A  8  54 FC D3 10 99 8C 00 00 
  1369)     45292.8  Rx         0000  2  81 6E 
  1370)     45299.9  Rx         018F  8  00 00 00 F2 D8 7B 00 00 
  1371)     45305.7  Rx         071E  1  05 
  1372)     45307.3  Rx         038F  2  01 00 
  1373)     45319.9  Rx         028F  8  00 00 7A 08 00 38 00 00 
  1374)     45339.9  Rx         010A  8  1D BF D4 10 99 8C 00 00 
  1375)     45389.9  Rx         010A  8  74 82 D5 10 99 8C 00 00 
  1376)     45440.4  Rx         010A  8  B3 47 D6 10 99 8C 00 00 
  1377)     45491.2  Rx         010A  8  14 0E D7 10 99 8C 00 00 
  1378)     45541.5  Rx         010A  8  DB D2 D7 10 99 8C 00 00 
  1379)     45591.7  Rx         010A  8  B9 96 D8 10 99 8C 00 00 
  1380)     45639.3  Rx         070F  1  05 
  1381)     45642.5  Rx         010A  8  2C 5D D9 10 99 8C 00 00 
  1382)     45693.3  Rx         010A  8  D4 23 DA 10 99 8C 00 00 
  1383)     45693.9  Rx         0000  2  81 6F 
  1384)     45743.5  Rx         010A  8  B1 E7 DA 10 99 8C 00 00 
  1385)     45794.1  Rx         010A  8  58 AD DB 10 99 8C 00 00 
  1386)     45838.0  Rx         0100  8  FC 50 04 00 00 00 00 00 
  1387)     45844.2  Rx         010A  8  31 71 DC 10 99 8C 00 00 
  1388)     45894.5  Rx         010A  8  62 35 DD 10 99 8C 00 00 
  1389)     45915.6  Rx         070A  1  RTR
  1390)     45916.3  Rx         070A  1  85 
  1391)     45945.0  Rx         010A  8  F6 FA DD 10 99 8C 00 00 
  1392)     45995.8  Rx         010A  8  57 C1 DE 10 99 8C 00 00 
  1393)     46046.5  Rx         010A  8  4A 87 DF 10 99 8C 00 00 
  1394)     46093.7  Rx         07EA  3  06 00 7F 
  1395)     46097.2  Rx         010A  8  39 4D E0 10 99 8C 00 00 
  1396)     46115.5  Rx         0701  1  05 
  1397)     46148.0  Rx         010A  8  FC 13 E1 10 99 8C 00 00 
  1398)     46198.2  Rx         010A  8  F8 D7 E1 10 99 8C 00 00 
  1399)     46248.1  Rx         010A  8  F1 9A E2 10 99 8C 00 00 
  1400)     46298.5  Rx         010A  8  BC 5F E3 10 99 8C 00 00 
  1401)     46299.8  Rx         018F  8  00 00 00 F2 D8 7A 00 00 
  1402)     46307.9  Rx         028F  8  00 00 7A 08 00 38 00 00 
  1403)     46319.3  Rx         038F  2  01 00 
  1404)     46349.3  Rx         010A  8  19 26 E4 10 99 8C 00 00 
  1405)     46399.2  Rx         010A  8  2D E9 E4 10 99 8C 00 00 
  1406)     46450.0  Rx         010A  8  8C AF E5 10 99 8C 00 00 
  1407)     46500.5  Rx         010A  8  D0 74 E6 10 99 8C 00 00 
  1408)     46550.7  Rx         010A  8  05 39 E7 10 99 8C 00 00 
  1409)     46600.8  Rx         010A  8  74 FC E7 10 99 8C 00 00 
  1410)     46651.0  Rx         010A  8  BB C0 E8 10 99 8C 00 00 
  1411)     46701.8  Rx         010A  8  11 87 E9 10 99 8C 00 00 
  1412)     46726.1  Rx         071E  1  05 
  1413)     46752.1  Rx         010A  8  6A 4B EA 10 99 8C 00 00 
  1414)     46801.9  Rx         010A  8  42 0E EB 10 99 8C 00 00 
  1415)     46815.1  Rx         060F  8  40 08 10 00 00 00 00 00 
  1416)     46838.3  Rx         0100  8  E4 54 04 00 00 00 00 00 
  1417)     46851.9  Rx         010A  8  A0 D1 EB 10 99 8C 00 00 
  1418)     46859.9  Rx         058F  8  41 08 10 00 20 00 00 00 
  1419)     46861.0  Rx         060F  8  60 00 00 00 00 00 00 00 
  1420)     46902.8  Rx         010A  8  29 98 EC 10 99 8C 00 00 
  1421)     46907.8  Rx         058F  8  00 62 65 74 61 2E 63 20 
  1422)     46908.9  Rx         060F  8  70 00 00 00 00 00 00 00 
  1423)     46953.4  Rx         010A  8  C3 5D ED 10 99 8C 00 00 
  1424)     46959.9  Rx         058F  8  10 20 20 20 00 00 00 00 
  1425)     46961.0  Rx         060F  8  60 00 00 00 00 00 00 00 
  1426)     47003.1  Rx         010A  8  05 20 EE 10 99 8C 00 00 
  1427)     47007.9  Rx         058F  8  00 00 00 00 00 00 00 00 
  1428)     47009.0  Rx         060F  8  70 00 00 00 00 00 00 00 
  1429)     47039.3  Rx         070F  1  05 
  1430)     47053.6  Rx         010A  8  7A E5 EE 10 99 8C 00 00 
  1431)     47059.9  Rx         058F  8  10 00 00 00 00 00 00 00 
  1432)     47061.0  Rx         060F  8  60 00 00 00 00 00 00 00 
  1433)     47104.3  Rx         010A  8  89 AB EF 10 99 8C 00 00 
  1434)     47107.9  Rx         058F  8  07 00 00 00 00 00 00 00 
  1435)     47109.6  Rx         060F  8  40 0A 10 00 00 00 00 00 
  1436)     47117.3  Rx         070A  1  RTR
  1437)     47117.8  Rx         0701  1  05 
  1438)     47118.9  Rx         070A  1  05 
  1439)     47155.0  Rx         010A  8  8F 71 F0 10 99 8C 00 00 
  1440)     47159.9  Rx         058F  8  41 0A 10 00 20 00 00 00 
  1441)     47161.0  Rx         060F  8  60 00 00 00 00 00 00 00 
  1442)     47205.6  Rx         010A  8  1E 37 F1 10 99 8C 00 00 
  1443)     47207.9  Rx         058F  8  00 39 30 30 30 30 35 34 
  1444)     47208.9  Rx         060F  8  70 00 00 00 00 00 00 00 
  1445)     47256.0  Rx         010A  8  FD FB F1 10 99 8C 00 00 
  1446)     47259.9  Rx         058F  8  10 39 38 39 30 20 31 2E 
  1447)     47260.9  Rx         060F  8  60 00 00 00 00 00 00 00 
  1448)     47299.9  Rx         018F  8  00 00 00 F2 D8 7A 00 00 
  1449)     47306.7  Rx         010A  8  29 C2 F2 10 99 8C 00 00 
  1450)     47307.5  Rx         038F  2  01 00 
  1451)     47319.9  Rx         028F  8  00 00 7A 08 00 38 00 00 
  1452)     47327.9  Rx         058F  8  00 30 30 00 00 00 00 00 
  1453)     47329.0  Rx         060F  8  70 00 00 00 00 00 00 00 
  1454)     47356.7  Rx         010A  8  2D 85 F3 10 99 8C 00 00 
  1455)     47367.9  Rx         058F  8  10 00 00 00 00 00 00 00 
  1456)     47369.0  Rx         060F  8  60 00 00 00 00 00 00 00 
  1457)     47407.0  Rx         010A  8  F6 49 F4 10 99 8C 00 00 
  1458)     47419.9  Rx         058F  8  07 00 00 00 00 00 00 00 
  1459)     47433.2  Rx         060F  8  40 00 60 00 00 00 00 00 
  1460)     47456.9  Rx         010A  8  B2 0C F5 10 99 8C 00 00 
  1461)     47479.9  Rx         058F  8  4F 00 60 00 06 00 00 00 
  1462)     47488.4  Rx         060F  8  40 00 62 00 00 00 00 00 
  1463)     47506.7  Rx         010A  8  65 CF F5 10 99 8C 00 00 
  1464)     47527.9  Rx         058F  8  4F 00 62 00 06 00 00 00 
  1465)     47538.7  Rx         060F  8  40 01 64 00 00 00 00 00 
  1466)     47556.6  Rx         010A  8  43 92 F6 10 99 8C 00 00 
  1467)     47579.9  Rx         058F  8  4F 01 64 00 0C 00 00 00 
  1468)     47585.7  Rx         060F  8  40 11 64 00 00 00 00 00 
  1469)     47606.7  Rx         010A  8  FF 55 F7 10 99 8C 00 00 
  1470)     47627.9  Rx         058F  8  4F 11 64 00 06 00 00 00 
  1471)     47656.6  Rx         010A  8  C3 18 F8 10 99 8C 00 00 
  1472)     47707.1  Rx         010A  8  E7 DD F8 10 99 8C 00 00 
  1473)     47757.6  Rx         010A  8  1B A3 F9 10 99 8C 00 00 
  1474)     47807.5  Rx         010A  8  6C 66 FA 10 99 8C 00 00 
  1475)     47838.8  Rx         0100  8  CC 58 04 00 00 00 00 00 
  1476)     47857.4  Rx         010A  8  EE 28 FB 10 99 8C 00 00 
  1477)     47907.6  Rx         010A  8  58 ED FB 10 99 8C 00 00 
  1478)     47957.4  Rx         010A  8  E0 AF FC 10 99 8C 00 00 
  1479)     48008.2  Rx         010A  8  1D 76 FD 10 99 8C 00 00 
  1480)     48059.0  Rx         010A  8  AA 3C FE 10 99 8C 00 00 
  1481)     48109.7  Rx         010A  8  97 02 FF 10 99 8C 00 00 
  1482)     48118.6  Rx         0701  1  05 
  1483)     48145.7  Rx         071E  1  05 
  1484)     48159.9  Rx         010A  8  DB C6 FF 10 99 8C 00 00 
  1485)     48210.7  Rx         010A  8  07 8D 00 11 99 8C 00 00 
  1486)     48261.4  Rx         010A  8  6F 53 01 11 99 8C 00 00 
  1487)     48299.9  Rx         018F  8  00 00 00 F2 D8 7A 00 00 
  1488)     48307.9  Rx         028F  8  00 00 70 08 00 38 00 00 
  1489)     48312.2  Rx         010A  8  9B 19 02 11 99 8C 00 00 
  1490)     48319.0  Rx         070A  1  RTR
  1491)     48319.5  Rx         038F  2  01 00 
  1492)     48320.0  Rx         070A  1  85 
  1493)     48362.2  Rx         010A  8  D9 DC 02 11 99 8C 00 00 
  1494)     48412.8  Rx         010A  8  A5 A2 03 11 99 8C 00 00 
  1495)     48439.3  Rx         070F  1  05 
  1496)     48462.5  Rx         010A  8  24 65 04 11 99 8C 00 00 
  1497)     48512.9  Rx         010A  8  DE 29 05 11 99 8C 00 00 
  1498)     48562.7  Rx         010A  8  6E EC 05 11 99 8C 00 00 
  1499)     48613.0  Rx         010A  8  95 B0 06 11 99 8C 00 00 
  1500)     48663.7  Rx         010A  8  E1 76 07 11 99 8C 00 00 
  1501)     48713.6  Rx         010A  8  98 39 08 11 99 8C 00 00 
  1502)     48764.1  Rx         010A  8  1A FF 08 11 99 8C 00 00 
  1503)     48814.9  Rx         010A  8  3A C5 09 11 99 8C 00 00 
  1504)     48839.7  Rx         0100  8  B5 5C 04 00 00 00 00 00 
  1505)     48864.9  Rx         010A  8  94 88 0A 11 99 8C 00 00 
  1506)     48915.5  Rx         010A  8  8F 4E 0B 11 99 8C 00 00 
  1507)     48965.6  Rx         010A  8  13 12 0C 11 99 8C 00 00 
  1508)     49015.9  Rx         010A  8  9D D6 0C 11 99 8C 00 00 
  1509)     49066.0  Rx         010A  8  5D 9A 0D 11 99 8C 00 00 
  1510)     49093.6  Rx         0000  2  81 70 
  1511)     49116.7  Rx         010A  8  45 60 0E 11 99 8C 00 00 
  1512)     49120.3  Rx         0701  1  05 
  1513)     49167.0  Rx         010A  8  BA 24 0F 11 99 8C 00 00 
  1514)     49217.3  Rx         010A  8  6A E9 0F 11 99 8C 00 00 
  1515)     49267.4  Rx         010A  8  25 AD 10 11 99 8C 00 00 
  1516)     49299.9  Rx         018F  8  00 00 00 F2 D8 79 00 00 
  1517)     49307.4  Rx         038F  2  01 00 
  1518)     49317.9  Rx         010A  8  36 72 11 11 99 8C 00 00 
  1519)     49320.0  Rx         028F  8  00 00 7A 08 00 38 00 00 
  1520)     49367.8  Rx         010A  8  37 35 12 11 99 8C 00 00 
  1521)     49418.0  Rx         010A  8  5A F9 12 11 99 8C 00 00 
  1522)     49468.7  Rx         010A  8  2F BF 13 11 99 8C 00 00 
  1523)     49494.3  Rx         0000  2  81 71 
  1524)     49519.3  Rx         010A  8  EA 84 14 11 99 8C 00 00 
  1525)     49521.0  Rx         070A  1  RTR
  1526)     49523.8  Rx         070A  1  05 
  1527)     49566.3  Rx         071E  1  05 
  1528)     49569.9  Rx         010A  8  D2 4A 15 11 99 8C 00 00 
  1529)     49620.5  Rx         010A  8  75 10 16 11 99 8C 00 00 
  1530)     49670.8  Rx         010A  8  8F D4 16 11 99 8C 00 00 
  1531)     49721.1  Rx         010A  8  57 99 17 11 99 8C 00 00 
  1532)     49771.7  Rx         010A  8  AC 5E 18 11 99 8C 00 00 
  1533)     49821.9  Rx         010A  8  E0 22 19 11 99 8C 00 00 
  1534)     49839.3  Rx         070F  1  05 
  1535)     49840.6  Rx         0100  8  9E 60 04 00 00 00 00 00 
  1536)     49872.0  Rx         010A  8  D2 E6 19 11 99 8C 00 00 
  1537)     49895.0  Rx         0000  2  81 72 
  1538)     49922.5  Rx         010A  8  07 AC 1A 11 99 8C 00 00 
  1539)     49973.3  Rx         010A  8  4A 72 1B 11 99 8C 00 00 
  1540)     50023.8  Rx         010A  8  C8 37 1C 11 99 8C 00 00 
  1541)     50074.5  Rx         010A  8  7E FD 1C 11 99 8C 00 00 
  1542)     50122.6  Rx         0701  1  05 
  1543)     50125.3  Rx         010A  8  1B C4 1D 11 99 8C 00 00 
  1544)     50175.6  Rx         010A  8  E3 88 1E 11 99 8C 00 00 
  1545)     50226.2  Rx         010A  8  3D 4E 1F 11 99 8C 00 00 
  1546)     50276.6  Rx         010A  8  60 13 20 11 99 8C 00 00 
  1547)     50295.0  Rx         0000  2  81 73 
  1548)     50299.9  Rx         018F  8  00 00 00 F2 D8 79 00 00 
  1549)     50308.0  Rx         028F  8  00 00 7A 08 00 38 00 00 
  1550)     50319.4  Rx         038F  2  01 00 
  1551)     50326.9  Rx         010A  8  BC D7 20 11 99 8C 00 00 
  1552)     50377.3  Rx         010A  8  D1 9C 21 11 99 8C 00 00 
  1553)     50427.8  Rx         010A  8  C9 61 22 11 99 8C 00 00 
  1554)     50478.1  Rx         010A  8  8A 26 23 11 99 8C 00 00 
  1555)     50528.8  Rx         010A  8  5C EC 23 11 99 8C 00 00 
  1556)     50579.0  Rx         010A  8  8E B0 24 11 99 8C 00 00 
  1557)     50629.1  Rx         010A  8  2F 74 25 11 99 8C 00 00 
  1558)     50678.9  Rx         010A  8  A8 36 26 11 99 8C 00 00 
  1559)     50695.1  Rx         0000  2  81 74 
  1560)     50723.8  Rx         070A  1  RTR
  1561)     50725.6  Rx         070A  1  85 
  1562)     50729.6  Rx         010A  8  E2 FC 26 11 99 8C 00 00 
  1563)     50778.7  Rx         060F  8  40 01 22 01 00 00 00 00 
  1564)     50779.7  Rx         010A  8  C5 BF 27 11 99 8C 00 00 
  1565)     50819.9  Rx         058F  8  4B 01 22 01 11 01 00 00 
  1566)     50821.0  Rx         060F  8  40 00 22 01 00 00 00 00 
  1567)     50830.0  Rx         010A  8  02 85 28 11 99 8C 00 00 
  1568)     50841.5  Rx         0100  8  87 64 04 00 00 00 00 00 
  1569)     50867.9  Rx         058F  8  4B 00 22 01 E4 00 00 00 
  1570)     50880.0  Rx         010A  8  3F 48 29 11 99 8C 00 00 
  1571)     50930.7  Rx         010A  8  43 0E 2A 11 99 8C 00 00 
  1572)     50981.1  Rx         010A  8  4E D3 2A 11 99 8C 00 00 
  1573)     50985.7  Rx         071E  1  05 
  1574)     51031.3  Rx         010A  8  65 97 2B 11 99 8C 00 00 
  1575)     51082.0  Rx         010A  8  62 5D 2C 11 99 8C 00 00 
  1576)     51096.0  Rx         0000  2  81 75 
  1577)     51124.8  Rx         0701  1  05 
  1578)     51132.5  Rx         010A  8  B2 22 2D 11 99 8C 00 00 
  1579)     51182.8  Rx         010A  8  4A E7 2D 11 99 8C 00 00 
  1580)     51233.3  Rx         010A  8  36 AC 2E 11 99 8C 00 00 
  1581)     51239.3  Rx         070F  1  05 
  1582)     51283.4  Rx         010A  8  14 70 2F 11 99 8C 00 00 
  1583)     51299.9  Rx         018F  8  00 00 00 F2 D8 79 00 00 
  1584)     51307.4  Rx         038F  2  01 00 
  1585)     51320.0  Rx         028F  8  00 00 7A 08 00 38 00 00 
  1586)     51333.9  Rx         010A  8  6F 35 30 11 99 8C 00 00 
  1587)     51384.0  Rx         010A  8  04 F9 30 11 99 8C 00 00 
  1588)     51434.7  Rx         010A  8  40 BF 31 11 99 8C 00 00 
  1589)     51485.4  Rx         010A  8  07 85 32 11 99 8C 00 00 
  1590)     51496.5  Rx         0000  2  81 76 
  1591)     51536.0  Rx         010A  8  07 4B 33 11 99 8C 00 00 
  1592)     51586.7  Rx         010A  8  BD 10 34 11 99 8C 00 00 
  1593)     51637.3  Rx         010A  8  70 D6 34 11 99 8C 00 00 
  1594)     51646.4  Rx         060F  8  40 00 60 01 00 00 00 00 
  1595)     51687.3  Rx         010A  8  B2 99 35 11 99 8C 00 00 
  1596)     51688.2  Rx         058F  8  4F 00 60 01 87 00 00 00 
  1597)     51689.3  Rx         060F  8  40 00 60 02 00 00 00 00 
  1598)     51737.1  Rx         010A  8  41 5C 36 11 99 8C 00 00 
  1599)     51739.9  Rx         058F  8  4F 00 60 02 E9 00 00 00 
  1600)     51741.0  Rx         060F  8  40 00 60 03 00 00 00 00 
  1601)     51787.9  Rx         010A  8  A3 22 37 11 99 8C 00 00 
  1602)     51788.8  Rx         058F  8  4F 00 60 03 23 00 00 00 
  1603)     51789.9  Rx         060F  8  40 00 60 04 00 00 00 00 
  1604)     51837.8  Rx         010A  8  B2 E5 37 11 99 8C 00 00 
  1605)     51839.9  Rx         058F  8  4F 00 60 04 0E 00 00 00 
  1606)     51841.0  Rx         060F  8  40 00 60 05 00 00 00 00 
  1607)     51842.1  Rx         0100  8  70 68 04 00 00 00 00 00 
  1608)     51887.9  Rx         058F  8  4F 00 60 05 36 00 00 00 
  1609)     51888.9  Rx         010A  8  45 AB 38 11 99 8C 00 00 
  1610)     51889.9  Rx         060F  8  40 00 60 06 00 00 00 00 
  1611)     51897.4  Rx         0000  2  81 77 
  1612)     51925.7  Rx         070A  1  RTR
  1613)     51927.5  Rx         070A  1  05 
  1614)     51938.7  Rx         010A  8  BF 6F 39 11 99 8C 00 00 
